EXPLAIN
TAG	EISPOT
TITLE	LABEL	Potentiostatic EIS	Test &Identifier
DATE	LABEL	4/24/2025	Date
TIME	LABEL	16:28:58	Time
NOTES	NOTES	1	&Notes...
	
PSTAT	PSTAT	IFC1010-32247	Potentiostat
VDC	POTEN	0.00000E+000	T	DC &Voltage (V)
FREQINIT	QUANT	1.00000E+005	Initial Fre&q. (Hz)
FREQFINAL	QUANT	1.00000E+000	Final Fre&q. (Hz)
PTSPERDEC	QUANT	7.00000E+000	Points/&decade
VAC	QUANT	1.00000E+001	AC &Voltage (mV rms)
AREA	QUANT	1.00000E+000	&Area (cm^2)
CONDIT	TWOPARAM	F	1.50000E+001	0.00000E+000	Conditionin&g	Time(s)	E(V)
DELAY	TWOPARAM	F	1.00000E+001	0.00000E+000	Init. De&lay	Time(s)	Stab.(mV/s)
SPEED	SELECTOR	1	&Optimize for:
THD	SELECTOR	0	T&HD
DRIFTCOR	SELECTOR	0	&Drift Correction
ZGUESS	QUANT	1.00000E+002	E&stimated Z (ohms)
OCVCURVE	TABLE	39
	Pt	T	Vf	Vm	Ach	Over	Temp
	#	s	V vs. Ref.	V	V	bits	deg C
	0	0.258333	2.18782E-001	2.18782E-001	0.00000E+000	...........	1368.94
	1	0.516667	2.18782E-001	2.18787E-001	0.00000E+000	...........	1368.94
	2	0.775	2.18783E-001	2.18789E-001	0.00000E+000	...........	1368.08
	3	1.03333	2.18784E-001	2.18791E-001	0.00000E+000	...........	1368.08
	4	1.29167	2.18786E-001	2.18796E-001	0.00000E+000	...........	1368.08
	5	1.55	2.18789E-001	2.18798E-001	0.00000E+000	...........	1368.08
	6	1.80833	2.18792E-001	2.18804E-001	0.00000E+000	...........	1368.86
	7	2.06667	2.18795E-001	2.18806E-001	0.00000E+000	...........	1368.86
	8	2.325	2.18799E-001	2.18814E-001	0.00000E+000	...........	1368.86
	9	2.58333	2.18803E-001	2.18816E-001	0.00000E+000	...........	1368.86
	10	2.84167	2.18807E-001	2.18825E-001	0.00000E+000	...........	1368.77
	11	3.1	2.18812E-001	2.18826E-001	0.00000E+000	...........	1368.77
	12	3.35833	2.18817E-001	2.18831E-001	0.00000E+000	...........	1368.77
	13	3.61667	2.18822E-001	2.18832E-001	0.00000E+000	...........	1368.73
	14	3.875	2.18826E-001	2.18837E-001	0.00000E+000	...........	1368.34
	15	4.13333	2.18830E-001	2.18846E-001	0.00000E+000	...........	1368.34
	16	4.39167	2.18834E-001	2.18846E-001	0.00000E+000	...........	1368.34
	17	4.65	2.18838E-001	2.18848E-001	0.00000E+000	...........	1368.47
	18	4.90833	2.18842E-001	2.18855E-001	0.00000E+000	...........	1368.51
	19	5.16667	2.18846E-001	2.18860E-001	0.00000E+000	...........	1368.51
	20	5.425	2.18850E-001	2.18864E-001	0.00000E+000	...........	1368.51
	21	5.68333	2.18855E-001	2.18867E-001	0.00000E+000	...........	1368.68
	22	5.94167	2.18859E-001	2.18876E-001	0.00000E+000	...........	1368.68
	23	6.2	2.18864E-001	2.18877E-001	0.00000E+000	...........	1368.68
	24	6.45833	2.18869E-001	2.18882E-001	0.00000E+000	...........	1368.68
	25	6.71667	2.18873E-001	2.18889E-001	0.00000E+000	...........	1368.77
	26	6.975	2.18878E-001	2.18892E-001	0.00000E+000	...........	1368.77
	27	7.23333	2.18883E-001	2.18899E-001	0.00000E+000	...........	1368.77
	28	7.49167	2.18888E-001	2.18903E-001	0.00000E+000	...........	1368.77
	29	7.75	2.18893E-001	2.18911E-001	0.00000E+000	...........	1368.77
	30	8.00833	2.18898E-001	2.18913E-001	0.00000E+000	...........	1368.77
	31	8.26667	2.18903E-001	2.18919E-001	0.00000E+000	...........	1368.77
	32	8.525	2.18909E-001	2.18925E-001	0.00000E+000	...........	1368.77
	33	8.78333	2.18914E-001	2.18924E-001	0.00000E+000	...........	1368.77
	34	9.04167	2.18918E-001	2.18930E-001	0.00000E+000	...........	1368.77
	35	9.3	2.18923E-001	2.18934E-001	0.00000E+000	...........	1368.77
	36	9.5583	2.18926E-001	2.18939E-001	0.00000E+000	...........	1368.77
	37	9.8167	2.18930E-001	2.18947E-001	0.00000E+000	...........	1368.77
	38	10.075	2.18934E-001	2.18949E-001	0.00000E+000	...........	1368.77
EOC	QUANT	0.2189345	Open Circuit (V)
PSTATMODEL	IQUANT	64	Pstat Model
PSTATSECTION	LABEL	IFC1010-32247	Pstat Section
PSTATSERIALNO	LABEL	32247	Pstat Serial Number
CTRLMODE	IQUANT	1	Control Mode
ELECTROMETER	IQUANT	0	RE=0 or CS=1
IESTAB	IQUANT	0	I/E Stability
CASPEED	IQUANT	3	Control Amp Speed
CONVENTION	IQUANT	1	Current Convention
ICHRANGE	IQUANT	2	Ich Range
ICHRANGEMODE	TOGGLE	F	Ich Auto Range
ICHOFFSETENABLE	TOGGLE	T	Ich Offset Enable
ICHOFFSET	QUANT	0	Ich Offset (V)
ICHFILTER	IQUANT	4	Ich Filter
VCHRANGE	IQUANT	2	Vch Range
VCHRANGEMODE	TOGGLE	F	Vch Auto Range
VCHOFFSETENABLE	TOGGLE	T	Vch Offset Enable
VCHOFFSET	QUANT	0	Vch Offset (V)
VCHFILTER	IQUANT	4	Vch Filter
IERANGELOWERLIMIT	IQUANT	4	I/E Range Lower Limit
IERANGEMODE	TOGGLE	F	I/E AutoRange
IERANGE	IQUANT	10	I/E Range
ACHSELECT	IQUANT	0	Ach Select
ACHRANGE	IQUANT	2	Ach Range
ACHOFFSETENABLE	TOGGLE	F	Ach Offset Enable
ACHOFFSET	QUANT	0	Ach Offset (V)
ACHFILTER	IQUANT	1	Ach Filter
SENSECABLEID	IQUANT	14	Sense Cable ID
PWRCABLEID	IQUANT	14	Power Cable ID
DCCALDATE	LABEL	11/18/2024	DC Calibration Date
ACCALDATE	LABEL	4/18/2022	AC Calibration Date
FRAMEWORKVERSION	LABEL	7.10.3	Framework Version
INSTRUMENTVERSION	LABEL	4.91	Instrument Version
COMMVERSION	LABEL	3.10	Communications Version
CPUPLDVERSION	LABEL	2.22	CPU PLD Version
CTRLPLDVERSION	LABEL	0.00	CTRL PLD Version
PSTATPLDVERSION	LABEL	0.00	PSTAT PLD Version
ZCURVE	TABLE
	Pt	Time	Freq	Zreal	Zimag	Zsig	Zmod	Zphz	Idc	Vdc	IERange	Imod	Vmod	Temp
	#	s	Hz	ohm	ohm	V	ohm	°	A	V	#	A	V	°C
	0	1	100019.5	112.4721	-7.744891	1	112.7384	-3.939202	-3.65403E-007	0.2189572	9	8.818335E-005	0.0099778	1368.341
	1	2	72011.72	113.2234	-9.66912	1	113.6355	-4.881137	-2.116777E-007	0.218962	9	0.0000987	0.0112332	1368.341
	2	4	51855.47	114.1616	-12.34667	1	114.8274	-6.172591	-2.238379E-007	0.2189628	9	9.262373E-005	0.0106428	1367.739
	3	6	37324.22	115.4102	-15.77528	1	116.4834	-7.783454	-3.61625E-007	0.2189544	9	8.828749E-005	0.0102872	1368.341
	4	7	26894.53	116.9679	-20.21707	1	118.7022	-9.80628	-2.370016E-007	0.2189613	9	8.550082E-005	0.0101507	1367.911
	5	9	19394.53	118.9019	-25.94935	1	121.7006	-12.31129	-3.779444E-007	0.2189557	9	8.260699E-005	0.0100541	1367.739
	6	11	13831.02	121.3036	-33.72578	1	125.9047	-15.53742	-6.45965E-007	0.2188588	9	7.975349E-005	0.0100417	1368.341
	7	13	10019.53	124.0808	-43.49273	1	131.4826	-19.31656	-3.671082E-007	0.2189565	9	7.589266E-005	0.0099788	1368.341
	8	14	7207.031	127.4725	-56.73228	1	139.527	-23.9917	-3.677854E-007	0.2189566	9	7.166468E-005	0.0099993	1367.739
	9	16	5150.463	131.7193	-74.87164	1	151.5115	-29.61469	-6.519903E-007	0.2188594	9	6.590202E-005	0.009985	1368.341
	10	17	3715.701	136.9652	-98.5636	1	168.7432	-35.73973	-4.30139E-007	0.218986	9	5.862564E-005	0.0098794	1367.911
	11	19	2686.738	143.6787	-130.0118	1	193.7696	-42.14127	-3.181731E-008	0.2189882	8	5.334718E-005	0.0103302	1367.739
	12	21	1933.594	152.7741	-172.5559	1	230.4679	-48.47961	-2.773709E-008	0.2189875	8	4.308499E-005	0.0099264	1368.254
	13	22	1395.089	164.8254	-228.8557	1	282.0325	-54.238	-2.984461E-008	0.2189864	8	3.516849E-005	0.009917	1367.997
	14	24	1000.702	181.4734	-305.1202	1	355.0084	-59.25749	-3.17706E-008	0.2189269	8	2.805284E-005	0.0099581	1367.653
	15	26	716.9117	204.0679	-407.25	1	455.5176	-63.38512	-3.280968E-008	0.2189268	8	2.185248E-005	0.0099538	1368.169
	16	27	520.8333	233.198	-536.667	1	585.1434	-66.5136	-2.885163E-008	0.2189259	8	1.707759E-005	0.0099926	1367.653
	17	29	372.8693	274.1469	-715.4537	1	766.1791	-69.03421	-3.58062E-008	0.2189851	8	1.288703E-005	0.0098279	1368.254
	18	30	269.3965	327.7255	-945.808	1	1000.978	-70.88863	-3.697202E-008	0.2189875	8	1.011132E-005	0.010098	1367.911
	19	32	193.6983	400.3568	-1254.94	1	1317.255	-72.30604	-3.783911E-008	0.2189891	8	7.577948E-006	0.0099707	1367.739
	20	33	139.2327	497.4125	-1664.091	1	1736.841	-73.35809	-3.847831E-008	0.2189878	8	5.712011E-006	0.0099151	1368.341
	21	35	99.734	618.3523	-2199.57	1	2284.834	-74.29804	-1.001396E-008	0.2189952	7	4.388771E-006	0.0100247	1367.825
	22	37	72.11539	772.0927	-2871.896	1	2973.872	-74.95216	-8.301313E-009	0.2189929	7	3.361704E-006	0.0099958	1368.341
	23	38	49.86702	1042.396	-3971.435	1	4105.958	-75.29313	-7.158128E-009	0.2189927	7	2.435585E-006	0.0099997	1367.911
	24	40	37.5	1286.07	-5023.664	1	5185.67	-75.64053	-6.313362E-009	0.2189939	7	1.928304E-006	0.0099991	1368.254
	25	41	27.25291	1694.817	-6652.931	1	6865.413	-75.70804	-6.223255E-009	0.2189934	7	1.456531E-006	0.0099995	1367.911
	26	43	19.29012	2257.609	-8931.628	1	9212.533	-75.81471	-5.635859E-009	0.2189952	7	1.085469E-006	0.0099998	1367.911
	27	45	13.95089	2960.316	-11753.3	1	12120.37	-75.8629	-4.899253E-009	0.2189927	7	8.250022E-007	0.0099993	1367.825
	28	47	9.9734	3923.482	-15588.77	1	16074.94	-75.87286	-4.326564E-009	0.2189928	7	6.220855E-007	0.01	1367.825
	29	49	7.233796	5213.085	-20527.39	1	21179	-75.75054	-1.192871E-009	0.2189962	6	4.721576E-007	0.0099998	1367.825
	30	51	5.196785	6928.06	-27104.51	1	27975.93	-75.66188	-9.383307E-010	0.2189934	6	3.574116E-007	0.0099989	1367.825
	31	53	3.720238	9223.39	-35859.5	1	37026.68	-75.57567	-7.624963E-010	0.2189952	6	2.700863E-007	0.0100004	1367.739
	32	56	2.689329	12136.21	-47012.91	1	48554.11	-75.52531	-6.556677E-010	0.2189964	6	2.059565E-007	0.01	1368.254
	33	59	1.929012	16019.05	-62110.86	1	64143.35	-75.53797	-5.740612E-010	0.2189893	6	1.542399E-007	0.0098875	1367.911
	34	64	1.395089	20809.44	-81434.23	1	84050.98	-75.66557	-5.075262E-010	0.2189922	6	1.19995E-007	0.0100829	1367.739
	35	69	0.997765	27202.33	-107984.3	1	111357.8	-75.8608	-4.91412E-010	0.2189888	6	9.003569E-008	0.0100249	1367.911
