EXPLAIN
TAG	EISPOT
TITLE	LABEL	Potentiostatic EIS	Test Identifier
DATE	LABEL	5/9/2025	Date
TIME	LABEL	14:30:06	Time
NOTES	NOTES	1	Notes...
	
PSTAT	PSTAT	REF600P-43058	Potentiostat
VDC	POTEN	0.00000E+000	T	DC Voltage (V)
FREQINIT	QUANT	1.00000E+005	Initial Freq. (Hz)
FREQFINAL	QUANT	1.00000E-001	Final Freq. (Hz)
PTSPERDEC	QUANT	7.00000E+000	Points/decade
VAC	QUANT	1.00000E+001	AC Voltage (mV rms)
AREA	QUANT	1.00000E+000	Sample Area (cm^2)
SPEED	SELECTOR	1	Optimize for:
DRIFTCOR	SELECTOR	0	Drift Correction
THD	SELECTOR	0	THD
ZGUESS	QUANT	1.00000E+002	Estimated Z (ohms)
EOC	QUANT	0.1869809	Open Circuit (V)
SEQUENCER	TOGGLE	TRUE	Run as Sequence
PSTATMODEL	IQUANT	7	Pstat Model
PSTATSECTION	LABEL	REF600P-43058	Pstat Section
PSTATSERIALNO	LABEL	43058	Pstat Serial Number
CTRLMODE	IQUANT	1	Control Mode
ELECTROMETER	IQUANT	0	RE=0 or CS=1
IESTAB	IQUANT	0	I/E Stability
CASPEED	IQUANT	3	Control Amp Speed
CONVENTION	IQUANT	1	Current Convention
ICHRANGE	IQUANT	2	Ich Range
ICHRANGEMODE	TOGGLE	F	Ich Auto Range
ICHOFFSETENABLE	TOGGLE	T	Ich Offset Enable
ICHOFFSET	QUANT	0	Ich Offset (V)
ICHFILTER	IQUANT	3	Ich Filter
VCHRANGE	IQUANT	2	Vch Range
VCHRANGEMODE	TOGGLE	F	Vch Auto Range
VCHOFFSETENABLE	TOGGLE	T	Vch Offset Enable
VCHOFFSET	QUANT	0	Vch Offset (V)
VCHFILTER	IQUANT	3	Vch Filter
ACHRANGE	IQUANT	2	Ach Range
ACHOFFSETENABLE	TOGGLE	F	Ach Offset Enable
ACHOFFSET	QUANT	0	Ach Offset (V)
ACHFILTER	IQUANT	1	Ach Filter
IERANGELOWERLIMIT	IQUANT	1	I/E Range Lower Limit
IERANGEMODE	TOGGLE	F	I/E AutoRange
IERANGE	IQUANT	10	I/E Range
POSFEEDENABLE	TOGGLE	F	Positive Feedback IR Comp
POSFEEDRESISTANCE	QUANT	0	Positive Feedback Resistance (ohm)
ACHSELECT	IQUANT	4	Ach Select
SENSECABLEID	IQUANT	7	Sense Cable ID
PWRCABLEID	IQUANT	7	Power Cable ID
DCCALDATE	LABEL	5/8/2025	DC Calibration Date
ACCALDATE	LABEL	5/8/2025	AC Calibration Date
THERMOSELECT	IQUANT	1	Thermo Select
FRAMEWORKVERSION	LABEL	7.10.4	Framework Version
INSTRUMENTVERSION	LABEL	5.01	Instrument Version
COMMVERSION	LABEL	5.10	Communications Version
CPUPLDVERSION	LABEL	6.00	CPU PLD Version
CTRLPLDVERSION	LABEL	3.21	CTRL PLD Version
PSTATPLDVERSION	LABEL	0.00	PSTAT PLD Version
ZCURVE	TABLE
	Pt	Time	Freq	Zreal	Zimag	Zsig	Zmod	Zphz	Idc	Vdc	IERange	Imod	Vmod	Temp
	#	s	Hz	ohm	ohm	V	ohm	deg	A	V	#	A	V	degC
	0	5	100078.1	4793.727	-292.7877	1	4802.66	-3.495127	2.122381E-008	0.1870091	7	1.990777E-006	0.0095847	-327.6624
	1	7	72046.88	5042.665	215.6483	1	5047.274	2.448748	1.258659E-008	0.1869228	6	1.260865E-006	0.0065579	-327.6624
	2	8	51796.87	5009.539	52.46495	1	5009.814	0.6000373	1.250142E-008	0.1869143	6	2.410641E-006	0.0122675	-327.6624
	3	10	37359.37	5018.806	-102.1931	1	5019.847	-1.166498	1.218599E-008	0.1869172	6	2.299274E-006	0.0116369	-327.6624
	4	11	26859.38	5059.149	-247.7477	1	5065.212	-2.803547	1.214296E-008	0.1869158	6	2.173655E-006	0.0110568	-327.6624
	5	13	19359.38	5119.705	-385.6385	1	5134.208	-4.307633	1.210525E-008	0.1869196	6	2.058587E-006	0.0105926	-327.6624
	6	15	13921.87	5200.152	-528.2661	1	5226.916	-5.800587	1.2257E-008	0.1869199	6	1.970079E-006	0.0103092	-327.6624
	7	16	10078.13	5295.55	-680.2691	1	5339.065	-7.320156	1.220963E-008	0.1869176	6	1.899748E-006	0.0101489	-327.6624
	8	18	7265.625	5413.056	-852.5125	1	5479.777	-8.950106	1.222012E-008	0.1869122	6	1.836239E-006	0.0100653	-327.6624
	9	19	5203.125	5554.975	-1059.532	1	5655.118	-10.79865	1.222231E-008	0.1869144	6	1.772218E-006	0.0100237	-327.6624
	10	21	3722.427	5725.806	-1307.297	1	5873.149	-12.86113	1.245703E-008	0.1869181	6	1.703377E-006	0.010005	-327.6624
	11	23	2659.255	5932.724	-1614.44	1	6148.466	-15.22297	1.237092E-008	0.186915	6	1.625747E-006	0.0099963	-327.6624
	12	24	1938.101	6167.086	-1965.609	1	6472.756	-17.67842	1.210917E-008	0.1869142	6	1.544363E-006	0.0099965	-327.6624
	13	26	1397.236	6462.722	-2412.676	1	6898.39	-20.4717	1.227606E-008	0.1869137	6	1.448732E-006	0.009994	-327.6624
	14	27	998.264	6835.145	-2980.354	1	7456.656	-23.55882	1.229103E-008	0.1869229	6	1.339997E-006	0.009992	-327.6624
	15	29	724.4318	7270.443	-3647.497	1	8134.1	-26.64239	1.224118E-008	0.1869183	6	1.229337E-006	0.0099996	-327.6624
	16	30	516.4195	7833.289	-4520.125	1	9043.89	-29.98668	1.257095E-008	0.1869212	6	1.105066E-006	0.0099941	-327.6624
	17	32	370.0658	8519.54	-5581.61	1	10185.13	-33.23097	-2.635678E-010	0.1869681	6	9.846939E-007	0.0100196	-327.6624
	18	34	268.9549	9329.89	-6834.058	1	11565.08	-36.22243	-3.108998E-010	0.1869649	6	8.661509E-007	0.0100111	-327.6624
	19	35	192.1107	10385.47	-8459.442	1	13394.78	-39.16441	-1.459062E-010	0.1869654	6	7.461209E-007	0.0099908	-327.6624
	20	37	137.8676	11676.7	-10441.06	1	15664.01	-41.80242	-1.714433E-010	0.186962	6	6.381495E-007	0.0099942	-327.6624
	21	39	100.4464	13196.44	-12757.99	1	18355.18	-44.03218	-1.246347E-010	0.1869664	6	5.442896E-007	0.0099896	-327.6624
	22	40	71.74745	15187.91	-15776.28	1	21898.94	-46.08857	-6.556977E-012	0.1869689	6	4.560645E-007	0.0099868	-327.6624
	23	42	49.86702	17889.48	-19838.02	1	26712.93	-47.95658	-1.073999E-010	0.1869733	6	3.726242E-007	0.0099536	-327.6624
	24	43	37.20238	20582.26	-23824.04	1	31483.55	-49.17534	8.836087E-011	0.186972	5	3.113447E-007	0.0098021	-327.6624
	25	45	27.25291	24019.69	-28957.66	1	37623.02	-50.32511	1.201912E-010	0.1869697	5	2.567961E-007	0.0096614	-327.6624
	26	47	19.21107	28741.6	-36178.61	1	46205.75	-51.5351	-3.784231E-009	0.1870236	5	2.308338E-007	0.0106658	-327.6624
	27	48	13.95089	34280.68	-44186.88	1	55925.36	-52.19529	-3.202578E-009	0.1870216	5	1.790368E-007	0.0100127	-327.6624
	28	49	9.93114	41572.62	-54067.9	1	68202.79	-52.44344	-1.514039E-009	0.1870162	5	1.467543E-007	0.010009	-327.6624
	29	51	7.233796	49504.61	-64713.38	1	81477.16	-52.58464	-9.259433E-010	0.1870158	5	1.228293E-007	0.0100078	-327.6624
	30	53	5.208333	58047.91	-77542.41	1	96862.7	-53.18163	-3.304685E-010	0.1870139	5	1.032981E-007	0.0100057	-327.6624
	31	55	3.75601	65854.52	-93791.34	1	114602.1	-54.92583	-1.397992E-010	0.1870109	5	8.73103E-008	0.0100059	-327.6624
	32	58	2.703287	72393.7	-116330.7	1	137017.1	-58.10561	-6.799239E-011	0.18701	5	7.302693E-008	0.0100059	-327.6624
	33	61	1.914829	77935.74	-150582.7	1	169555.7	-62.63568	-4.357986E-011	0.1870054	5	5.823989E-008	0.0099219	-327.6624
	34	66	1.392603	82083.59	-196011.7	1	212504.8	-67.27759	-2.345385E-011	0.1870064	5	4.724292E-008	0.0100641	-327.6624
	35	71	0.999041	86000.03	-263043	1	276744.7	-71.89522	-1.983178E-011	0.1870049	5	3.615826E-008	0.0100191	-327.6624
	36	76	0.7211539	89838.45	-355468.7	1	366645.6	-75.81651	1.362513E-011	0.1870058	4	2.718701E-008	0.0099744	-327.6624
	37	84	0.5208334	93787.05	-484146	1	493146.4	-79.03666	1.275738E-011	0.1870061	4	2.030334E-008	0.0100159	-327.6624
	38	93	0.375	98231.9	-664574.6	1	671795.3	-81.59189	1.739402E-011	0.1870073	4	1.489715E-008	0.0100096	-327.6624
	39	105	0.2693966	103727.1	-917192.9	1	923039.6	-83.54773	1.645988E-011	0.1870071	4	1.083887E-008	0.0100056	-327.6624
	40	122	0.1936983	110543.4	-1267313	1	1272125	-85.0149	1.887848E-011	0.1870046	4	7.864222E-009	0.0100047	-327.6624
	41	144	0.1390949	119334.1	-1755651	1	1759702	-86.1115	2.013859E-011	0.187006	4	5.683686E-009	0.0100018	-327.6624
	42	172	0.1001603	130859.1	-2427270	1	2430795	-86.91405	1.970487E-011	0.1870042	4	4.11344E-009	0.009999	-327.6624
