EXPLAIN
TAG	EISPOT
TITLE	LABEL	Potentiostatic EIS	Test Identifier
DATE	LABEL	5/9/2025	Date
TIME	LABEL	15:29:40	Time
NOTES	NOTES	1	Notes...
	
PSTAT	PSTAT	REF600P-43058	Potentiostat
VDC	POTEN	0.00000E+000	T	DC Voltage (V)
FREQINIT	QUANT	1.00000E+005	Initial Freq. (Hz)
FREQFINAL	QUANT	1.00000E-001	Final Freq. (Hz)
PTSPERDEC	QUANT	7.00000E+000	Points/decade
VAC	QUANT	1.00000E+001	AC Voltage (mV rms)
AREA	QUANT	1.00000E+000	Sample Area (cm^2)
SPEED	SELECTOR	1	Optimize for:
DRIFTCOR	SELECTOR	0	Drift Correction
THD	SELECTOR	0	THD
ZGUESS	QUANT	1.00000E+002	Estimated Z (ohms)
EOC	QUANT	0.1530634	Open Circuit (V)
SEQUENCER	TOGGLE	TRUE	Run as Sequence
PSTATMODEL	IQUANT	7	Pstat Model
PSTATSECTION	LABEL	REF600P-43058	Pstat Section
PSTATSERIALNO	LABEL	43058	Pstat Serial Number
CTRLMODE	IQUANT	1	Control Mode
ELECTROMETER	IQUANT	0	RE=0 or CS=1
IESTAB	IQUANT	0	I/E Stability
CASPEED	IQUANT	3	Control Amp Speed
CONVENTION	IQUANT	1	Current Convention
ICHRANGE	IQUANT	2	Ich Range
ICHRANGEMODE	TOGGLE	F	Ich Auto Range
ICHOFFSETENABLE	TOGGLE	T	Ich Offset Enable
ICHOFFSET	QUANT	0	Ich Offset (V)
ICHFILTER	IQUANT	3	Ich Filter
VCHRANGE	IQUANT	2	Vch Range
VCHRANGEMODE	TOGGLE	F	Vch Auto Range
VCHOFFSETENABLE	TOGGLE	T	Vch Offset Enable
VCHOFFSET	QUANT	0	Vch Offset (V)
VCHFILTER	IQUANT	3	Vch Filter
ACHRANGE	IQUANT	2	Ach Range
ACHOFFSETENABLE	TOGGLE	F	Ach Offset Enable
ACHOFFSET	QUANT	0	Ach Offset (V)
ACHFILTER	IQUANT	1	Ach Filter
IERANGELOWERLIMIT	IQUANT	1	I/E Range Lower Limit
IERANGEMODE	TOGGLE	F	I/E AutoRange
IERANGE	IQUANT	10	I/E Range
POSFEEDENABLE	TOGGLE	F	Positive Feedback IR Comp
POSFEEDRESISTANCE	QUANT	0	Positive Feedback Resistance (ohm)
ACHSELECT	IQUANT	4	Ach Select
SENSECABLEID	IQUANT	7	Sense Cable ID
PWRCABLEID	IQUANT	7	Power Cable ID
DCCALDATE	LABEL	5/8/2025	DC Calibration Date
ACCALDATE	LABEL	5/8/2025	AC Calibration Date
THERMOSELECT	IQUANT	1	Thermo Select
FRAMEWORKVERSION	LABEL	7.10.4	Framework Version
INSTRUMENTVERSION	LABEL	5.01	Instrument Version
COMMVERSION	LABEL	5.10	Communications Version
CPUPLDVERSION	LABEL	6.00	CPU PLD Version
CTRLPLDVERSION	LABEL	3.21	CTRL PLD Version
PSTATPLDVERSION	LABEL	0.00	PSTAT PLD Version
ZCURVE	TABLE
	Pt	Time	Freq	Zreal	Zimag	Zsig	Zmod	Zphz	Idc	Vdc	IERange	Imod	Vmod	Temp
	#	s	Hz	ohm	ohm	V	ohm	deg	A	V	#	A	V	degC
	0	5	100078.1	4851.153	-300.2922	1	4860.438	-3.542157	2.377655E-008	0.1529799	7	1.967353E-006	0.0095859	-327.6624
	1	7	72046.88	5105.337	228.9661	1	5110.469	2.567902	1.217207E-008	0.1528931	6	1.25116E-006	0.0065889	-327.6624
	2	8	51796.87	5068.064	67.93199	1	5068.519	0.7679428	1.30847E-008	0.1528963	6	2.378446E-006	0.0122455	-327.6624
	3	10	37359.37	5074.559	-83.94348	1	5075.253	-0.9477019	1.254432E-008	0.1528933	6	2.270042E-006	0.0116157	-327.6624
	4	12	26859.38	5111.042	-227.4301	1	5116.1	-2.547855	1.268246E-008	0.1528974	6	2.149288E-006	0.0110427	-327.6624
	5	13	19359.38	5169.212	-363.2542	1	5181.96	-4.019717	1.297967E-008	0.1528923	6	2.03795E-006	0.0105839	-327.6624
	6	15	13921.87	5246.122	-502.8816	1	5270.169	-5.475516	1.210815E-008	0.1528977	6	1.953908E-006	0.0103092	-327.6624
	7	17	10078.13	5341.294	-648.0004	1	5380.458	-6.917262	1.220844E-008	0.1528957	6	1.8846E-006	0.0101461	-327.6624
	8	18	7265.625	5457.267	-814.1887	1	5517.668	-8.485567	1.245534E-008	0.1528965	6	1.824333E-006	0.0100692	-327.6624
	9	20	5203.125	5598.544	-1007.676	1	5688.507	-10.20336	1.228344E-008	0.152896	6	1.761429E-006	0.0100215	-327.6624
	10	21	3722.427	5769.16	-1237.253	1	5900.339	-12.10429	1.242282E-008	0.1528902	6	1.695825E-006	0.0100068	-327.6624
	11	23	2659.255	5975.042	-1513.454	1	6163.738	-14.21384	1.295727E-008	0.1528968	6	1.621607E-006	0.0099956	-327.6624
	12	25	1938.101	6204.146	-1827.098	1	6467.589	-16.4095	1.2435E-008	0.1528987	6	1.54538E-006	0.0099951	-327.6624
	13	26	1397.236	6489.395	-2224.276	1	6860.003	-18.91943	1.244311E-008	0.1529023	6	1.456862E-006	0.0099942	-327.6624
	14	28	998.264	6841.981	-2726.036	1	7365.051	-21.72372	1.269647E-008	0.1529006	6	1.357133E-006	0.0099954	-327.6624
	15	30	724.4318	7250.483	-3309.516	1	7970.095	-24.53454	1.222804E-008	0.1528983	6	1.25428E-006	0.0099968	-327.6624
	16	31	516.4195	7775.765	-4070.938	1	8776.962	-27.63394	1.259551E-008	0.1529005	6	1.139491E-006	0.0100013	-327.6624
	17	33	370.0658	8407.953	-4996.546	1	9780.55	-30.7215	2.273983E-010	0.152946	6	1.025013E-006	0.0100156	-327.6624
	18	34	268.9549	9147.49	-6083.467	1	10985.68	-33.62558	2.545111E-010	0.1529466	6	9.119357E-007	0.0100122	-327.6624
	19	36	192.1107	10101.95	-7492.622	1	12577.31	-36.56435	2.390328E-010	0.1529463	6	7.947529E-007	0.0099925	-327.6624
	20	38	137.8676	11258.94	-9205.438	1	14543.17	-39.26982	2.866121E-010	0.1529458	6	6.871851E-007	0.0099921	-327.6624
	21	39	100.4464	12610.35	-11206.78	1	16870.47	-41.6274	4.02641E-010	0.1529457	6	5.922948E-007	0.0099913	-327.6624
	22	41	71.74745	14369.22	-13813.11	1	19931.8	-43.86955	1.816269E-010	0.1529463	6	5.009117E-007	0.0099836	-327.6624
	23	43	49.86702	16731.38	-17316.54	1	24079.07	-45.9846	3.171232E-010	0.1529428	6	4.134694E-007	0.0099557	-327.6624
	24	44	37.20238	19072.55	-20794.49	1	28216.54	-47.47319	3.486371E-010	0.1529382	6	3.504379E-007	0.009888	-327.6624
	25	46	27.25291	22096.41	-25226.69	1	33535.61	-48.78442	1.550051E-011	0.1529365	5	2.852333E-007	0.0095654	-327.6624
	26	47	19.21107	26309.8	-31452.97	1	41006.04	-50.08817	-4.488375E-009	0.1529939	5	2.602463E-007	0.0106716	-327.6624
	27	49	13.95089	31059.84	-38056.56	1	49122.45	-50.78042	-3.182485E-009	0.1529903	5	2.038002E-007	0.0100111	-327.6624
	28	50	9.93114	36726.96	-46047.84	1	58900.53	-51.42474	-1.100153E-009	0.1529907	5	1.699636E-007	0.0100109	-327.6624
	29	52	7.233796	42085.68	-55126.84	1	69355.41	-52.64067	-5.374825E-010	0.1529897	5	1.443223E-007	0.0100095	-327.6624
	30	54	5.208333	47096.9	-67331.64	1	82168.53	-55.02811	-1.350361E-010	0.1529885	5	1.218062E-007	0.0100086	-327.6624
	31	56	3.75601	51225.19	-84309.03	1	98651.1	-58.71762	-4.529721E-011	0.1529889	5	1.014513E-007	0.0100083	-327.6624
	32	59	2.703287	54635.84	-108748.3	1	121701.6	-63.32476	-1.790978E-011	0.1529902	5	8.223277E-008	0.0100079	-327.6624
	33	62	1.914829	57725.29	-145650.3	1	156672.3	-68.38019	1.450506E-012	0.1529885	5	6.304012E-008	0.0099236	-327.6624
	34	66	1.392603	60256.09	-193895.4	1	203042.5	-72.73654	1.559514E-011	0.1529923	5	4.944536E-008	0.0100642	-327.6624
	35	71	0.999041	62820.27	-264247.3	1	271611.9	-76.62715	1.014716E-011	0.1529921	5	3.683803E-008	0.0100181	-327.6624
	36	77	0.7211539	65558.87	-360644.7	1	366555	-79.69714	2.768563E-012	0.1529905	4	2.721547E-008	0.0099824	-327.6624
	37	84	0.5208334	68498.42	-494222.2	1	498946.5	-82.10917	4.392195E-012	0.15299	4	2.006009E-008	0.0100123	-327.6624
	38	94	0.375	72114.38	-681261.1	1	685067.3	-83.9575	5.127496E-012	0.1529835	4	1.460502E-008	0.0100072	-327.6624
	39	106	0.2693966	76498.96	-942625.4	1	945724.4	-85.36031	5.679325E-012	0.1529909	4	1.057712E-008	0.0100039	-327.6624
	40	122	0.1936983	82076.07	-1304749	1	1307328	-86.40051	7.089343E-012	0.1529922	4	7.651472E-009	0.0100034	-327.6624
	41	144	0.1390949	89450.9	-1810032	1	1812241	-87.17078	7.890397E-012	0.1529914	4	5.51875E-009	0.0100015	-327.6624
	42	172	0.1001603	99588.8	-2504941	1	2506920	-87.7233	9.345975E-012	0.1529901	4	3.989125E-009	0.0100005	-327.6624
