EXPLAIN
TAG	EISPOT
TITLE	LABEL	Potentiostatic EIS	Test Identifier
DATE	LABEL	5/9/2025	Date
TIME	LABEL	15:20:34	Time
NOTES	NOTES	1	Notes...
	
PSTAT	PSTAT	REF600P-43058	Potentiostat
VDC	POTEN	0.00000E+000	T	DC Voltage (V)
FREQINIT	QUANT	1.00000E+005	Initial Freq. (Hz)
FREQFINAL	QUANT	1.00000E-001	Final Freq. (Hz)
PTSPERDEC	QUANT	7.00000E+000	Points/decade
VAC	QUANT	1.00000E+001	AC Voltage (mV rms)
AREA	QUANT	1.00000E+000	Sample Area (cm^2)
SPEED	SELECTOR	1	Optimize for:
DRIFTCOR	SELECTOR	0	Drift Correction
THD	SELECTOR	0	THD
ZGUESS	QUANT	1.00000E+002	Estimated Z (ohms)
EOC	QUANT	0.1338838	Open Circuit (V)
SEQUENCER	TOGGLE	TRUE	Run as Sequence
PSTATMODEL	IQUANT	7	Pstat Model
PSTATSECTION	LABEL	REF600P-43058	Pstat Section
PSTATSERIALNO	LABEL	43058	Pstat Serial Number
CTRLMODE	IQUANT	1	Control Mode
ELECTROMETER	IQUANT	0	RE=0 or CS=1
IESTAB	IQUANT	0	I/E Stability
CASPEED	IQUANT	3	Control Amp Speed
CONVENTION	IQUANT	1	Current Convention
ICHRANGE	IQUANT	2	Ich Range
ICHRANGEMODE	TOGGLE	F	Ich Auto Range
ICHOFFSETENABLE	TOGGLE	T	Ich Offset Enable
ICHOFFSET	QUANT	0	Ich Offset (V)
ICHFILTER	IQUANT	3	Ich Filter
VCHRANGE	IQUANT	2	Vch Range
VCHRANGEMODE	TOGGLE	F	Vch Auto Range
VCHOFFSETENABLE	TOGGLE	T	Vch Offset Enable
VCHOFFSET	QUANT	0	Vch Offset (V)
VCHFILTER	IQUANT	3	Vch Filter
ACHRANGE	IQUANT	2	Ach Range
ACHOFFSETENABLE	TOGGLE	F	Ach Offset Enable
ACHOFFSET	QUANT	0	Ach Offset (V)
ACHFILTER	IQUANT	1	Ach Filter
IERANGELOWERLIMIT	IQUANT	1	I/E Range Lower Limit
IERANGEMODE	TOGGLE	F	I/E AutoRange
IERANGE	IQUANT	10	I/E Range
POSFEEDENABLE	TOGGLE	F	Positive Feedback IR Comp
POSFEEDRESISTANCE	QUANT	0	Positive Feedback Resistance (ohm)
ACHSELECT	IQUANT	4	Ach Select
SENSECABLEID	IQUANT	7	Sense Cable ID
PWRCABLEID	IQUANT	7	Power Cable ID
DCCALDATE	LABEL	5/8/2025	DC Calibration Date
ACCALDATE	LABEL	5/8/2025	AC Calibration Date
THERMOSELECT	IQUANT	1	Thermo Select
FRAMEWORKVERSION	LABEL	7.10.4	Framework Version
INSTRUMENTVERSION	LABEL	5.01	Instrument Version
COMMVERSION	LABEL	5.10	Communications Version
CPUPLDVERSION	LABEL	6.00	CPU PLD Version
CTRLPLDVERSION	LABEL	3.21	CTRL PLD Version
PSTATPLDVERSION	LABEL	0.00	PSTAT PLD Version
ZCURVE	TABLE
	Pt	Time	Freq	Zreal	Zimag	Zsig	Zmod	Zphz	Idc	Vdc	IERange	Imod	Vmod	Temp
	#	s	Hz	ohm	ohm	V	ohm	deg	A	V	#	A	V	degC
	0	6	100078.1	4410.306	-201.1948	1	4414.893	-2.611979	2.397748E-008	0.1339752	7	2.151195E-006	0.0095208	-327.6624
	1	7	72046.88	4623.236	277.5697	1	4631.561	3.435798	1.188982E-008	0.1339023	6	1.319287E-006	0.0062966	-327.6624
	2	9	51796.87	4582.683	137.9473	1	4584.758	1.72419	1.264591E-008	0.1338992	6	2.651504E-006	0.0123484	-327.6624
	3	10	37359.37	4579.624	8.043951	1	4579.631	0.100638	1.20635E-008	0.1338956	6	2.542977E-006	0.0117416	-327.6624
	4	12	26859.38	4602.727	-109.1186	1	4604.02	-1.358079	1.223626E-008	0.1338941	6	2.412316E-006	0.0111536	-327.6624
	5	14	19359.38	4643.106	-214.6502	1	4648.065	-2.646892	1.179711E-008	0.1339021	6	2.291159E-006	0.010673	-327.6624
	6	15	13921.87	4698.734	-316.0775	1	4709.354	-3.848411	1.185369E-008	0.1339009	6	2.197485E-006	0.0103606	-327.6624
	7	17	10078.13	4766.577	-417.9903	1	4784.869	-5.011557	1.192277E-008	0.1339007	6	2.125898E-006	0.0101782	-327.6624
	8	18	7265.625	4849.854	-526.8105	1	4878.382	-6.199391	1.217515E-008	0.1339017	6	2.067461E-006	0.010089	-327.6624
	9	20	5203.125	4949.137	-650.9061	1	4991.756	-7.492488	1.176238E-008	0.1339032	6	2.010673E-006	0.0100384	-327.6624
	10	22	3722.427	5066.705	-792.7653	1	5128.35	-8.892719	1.194251E-008	0.1339034	6	1.952185E-006	0.0100123	-327.6624
	11	23	2659.255	5203.053	-959.934	1	5290.863	-10.45321	1.241393E-008	0.1339086	6	1.889837E-006	0.0099993	-327.6624
	12	25	1938.101	5355.566	-1148.025	1	5477.23	-12.09888	1.223218E-008	0.1339093	6	1.825571E-006	0.0099993	-327.6624
	13	26	1397.236	5538.594	-1383.719	1	5708.826	-14.02719	1.260582E-008	0.1339099	6	1.750953E-006	0.009996	-327.6624
	14	28	998.264	5763.923	-1681.091	1	6004.072	-16.25972	1.175383E-008	0.1339066	6	1.66447E-006	0.0099937	-327.6624
	15	30	724.4318	6019.149	-2027.368	1	6351.407	-18.61454	1.166705E-008	0.133906	6	1.574598E-006	0.0100009	-327.6624
	16	31	516.4195	6346.808	-2477.456	1	6813.205	-21.32303	1.181963E-008	0.1339055	6	1.467712E-006	0.0099998	-327.6624
	17	33	370.0658	6738.888	-3024.66	1	7386.554	-24.17229	2.052624E-010	0.1339451	6	1.357639E-006	0.0100186	-327.6624
	18	34	268.9549	7194.282	-3667.264	1	8075.056	-27.01008	2.075318E-010	0.1339432	6	1.240541E-006	0.0100114	-327.6624
	19	36	192.1107	7780.452	-4498.25	1	8987.195	-30.03425	2.518377E-010	0.1339439	6	1.112283E-006	0.009993	-327.6624
	20	37	137.8676	8496.183	-5507.212	1	10124.94	-32.95124	2.826916E-010	0.133942	6	9.87141E-007	0.009993	-327.6624
	21	39	100.4464	9345.098	-6671.861	1	11482.36	-35.52465	3.210041E-010	0.1339414	6	8.704642E-007	0.009994	-327.6624
	22	41	71.74745	10454.7	-8133.597	1	13245.99	-37.88238	2.318714E-010	0.1339431	6	7.538671E-007	0.0099852	-327.6624
	23	42	49.86702	11877.2	-9985.87	1	15517.27	-40.05576	4.033103E-010	0.1339511	6	6.417042E-007	0.0099573	-327.6624
	24	44	37.20238	13118.99	-11735.7	1	17602.12	-41.81447	3.379994E-010	0.1339455	6	5.619331E-007	0.0098911	-327.6624
	25	45	27.25291	14415.02	-13995.27	1	20091.3	-44.15354	2.258897E-010	0.1339471	6	4.801756E-007	0.0096473	-327.6624
	26	47	19.21107	15731.69	-17424	1	23475.14	-47.92191	-1.846284E-009	0.1339939	6	4.538612E-007	0.0106544	-327.6624
	27	48	13.95089	16718.01	-21759.71	1	27440.42	-52.46488	-5.71198E-010	0.1339907	6	3.644869E-007	0.0100017	-327.6624
	28	50	9.93114	17586.04	-28363.42	1	33372.93	-58.20004	-1.282263E-010	0.1339915	5	2.976678E-007	0.009934	-327.6624
	29	52	7.233796	18292.91	-37150.79	1	41410.29	-63.78453	-7.614487E-011	0.1339943	5	2.42093E-007	0.0100251	-327.6624
	30	53	5.208333	18969.78	-49952.95	1	53433.6	-69.20558	-7.951417E-012	0.1339936	5	1.875282E-007	0.0100203	-327.6624
	31	56	3.75601	19655.96	-67801.81	1	70593.5	-73.83296	-1.31638E-011	0.1339979	5	1.418443E-007	0.0100133	-327.6624
	32	58	2.703287	20452.4	-92837.73	1	95063.9	-77.57604	1.829759E-011	0.1339997	5	1.052752E-007	0.0100079	-327.6624
	33	61	1.914829	21519.34	-129640.7	1	131414.6	-80.57529	2.107803E-011	0.1339951	5	7.514737E-008	0.0099224	-327.6624
	34	66	1.392603	22756.29	-176798.5	1	178257	-82.6656	2.518474E-011	0.1339935	5	5.630577E-008	0.0100616	-327.6624
	35	71	0.999041	24355.45	-244627.7	1	245837.1	-84.31429	3.684822E-011	0.133998	5	4.06918E-008	0.010016	-327.6624
	36	76	0.7211539	26334.62	-336987.7	1	338015.1	-85.53158	3.621631E-011	0.1339967	5	2.957916E-008	0.0100046	-327.6624
	37	83	0.5208334	28842.14	-463840.2	1	464736.1	-86.44186	1.6882E-011	0.1339919	4	2.14985E-008	0.0099945	-327.6624
	38	93	0.375	31954.09	-641344.9	1	642140.5	-87.14768	1.801115E-011	0.1339924	4	1.557717E-008	0.0100045	-327.6624
	39	105	0.2693966	36279.59	-889299.6	1	890039.3	-87.66387	1.805034E-011	0.1339931	4	1.123787E-008	0.010003	-327.6624
	40	122	0.1936983	42192.32	-1232621	1	1233343	-88.03954	1.947674E-011	0.133988	4	8.109612E-009	0.0100024	-327.6624
	41	144	0.1390949	50743.57	-1711140	1	1711892	-88.3014	2.008103E-011	0.1339912	4	5.841727E-009	0.0100006	-327.6624
	42	172	0.1001603	62799.32	-2369338	1	2370170	-88.48173	2.091607E-011	0.1339893	4	4.219236E-009	0.0100004	-327.6624
