EXPLAIN
TAG	EISPOT
TITLE	LABEL	Potentiostatic EIS	Test Identifier
DATE	LABEL	5/9/2025	Date
TIME	LABEL	14:39:43	Time
NOTES	NOTES	1	Notes...
	
PSTAT	PSTAT	REF600P-43058	Potentiostat
VDC	POTEN	0.00000E+000	T	DC Voltage (V)
FREQINIT	QUANT	1.00000E+005	Initial Freq. (Hz)
FREQFINAL	QUANT	1.00000E-001	Final Freq. (Hz)
PTSPERDEC	QUANT	7.00000E+000	Points/decade
VAC	QUANT	1.00000E+001	AC Voltage (mV rms)
AREA	QUANT	1.00000E+000	Sample Area (cm^2)
SPEED	SELECTOR	1	Optimize for:
DRIFTCOR	SELECTOR	0	Drift Correction
THD	SELECTOR	0	THD
ZGUESS	QUANT	1.00000E+002	Estimated Z (ohms)
EOC	QUANT	0.1704582	Open Circuit (V)
SEQUENCER	TOGGLE	TRUE	Run as Sequence
PSTATMODEL	IQUANT	7	Pstat Model
PSTATSECTION	LABEL	REF600P-43058	Pstat Section
PSTATSERIALNO	LABEL	43058	Pstat Serial Number
CTRLMODE	IQUANT	1	Control Mode
ELECTROMETER	IQUANT	0	RE=0 or CS=1
IESTAB	IQUANT	0	I/E Stability
CASPEED	IQUANT	3	Control Amp Speed
CONVENTION	IQUANT	1	Current Convention
ICHRANGE	IQUANT	2	Ich Range
ICHRANGEMODE	TOGGLE	F	Ich Auto Range
ICHOFFSETENABLE	TOGGLE	T	Ich Offset Enable
ICHOFFSET	QUANT	0	Ich Offset (V)
ICHFILTER	IQUANT	3	Ich Filter
VCHRANGE	IQUANT	2	Vch Range
VCHRANGEMODE	TOGGLE	F	Vch Auto Range
VCHOFFSETENABLE	TOGGLE	T	Vch Offset Enable
VCHOFFSET	QUANT	0	Vch Offset (V)
VCHFILTER	IQUANT	3	Vch Filter
ACHRANGE	IQUANT	2	Ach Range
ACHOFFSETENABLE	TOGGLE	F	Ach Offset Enable
ACHOFFSET	QUANT	0	Ach Offset (V)
ACHFILTER	IQUANT	1	Ach Filter
IERANGELOWERLIMIT	IQUANT	1	I/E Range Lower Limit
IERANGEMODE	TOGGLE	F	I/E AutoRange
IERANGE	IQUANT	10	I/E Range
POSFEEDENABLE	TOGGLE	F	Positive Feedback IR Comp
POSFEEDRESISTANCE	QUANT	0	Positive Feedback Resistance (ohm)
ACHSELECT	IQUANT	4	Ach Select
SENSECABLEID	IQUANT	7	Sense Cable ID
PWRCABLEID	IQUANT	7	Power Cable ID
DCCALDATE	LABEL	5/8/2025	DC Calibration Date
ACCALDATE	LABEL	5/8/2025	AC Calibration Date
THERMOSELECT	IQUANT	1	Thermo Select
FRAMEWORKVERSION	LABEL	7.10.4	Framework Version
INSTRUMENTVERSION	LABEL	5.01	Instrument Version
COMMVERSION	LABEL	5.10	Communications Version
CPUPLDVERSION	LABEL	6.00	CPU PLD Version
CTRLPLDVERSION	LABEL	3.21	CTRL PLD Version
PSTATPLDVERSION	LABEL	0.00	PSTAT PLD Version
ZCURVE	TABLE
	Pt	Time	Freq	Zreal	Zimag	Zsig	Zmod	Zphz	Idc	Vdc	IERange	Imod	Vmod	Temp
	#	s	Hz	ohm	ohm	V	ohm	deg	A	V	#	A	V	degC
	0	5	100078.1	4795.317	-294.9131	1	4804.377	-3.519271	2.365515E-008	0.1704971	7	1.989801E-006	0.0095835	-327.6624
	1	6	72046.88	5044.53	211.5294	1	5048.963	2.401145	1.224779E-008	0.170415	6	1.260607E-006	0.0065587	-327.6624
	2	8	51796.87	5012.627	50.67844	1	5012.883	0.5792495	1.226498E-008	0.1704126	6	2.409749E-006	0.0122705	-327.6624
	3	10	37359.37	5022.392	-103.6568	1	5023.461	-1.182355	1.231578E-008	0.1704131	6	2.297388E-006	0.0116357	-327.6624
	4	11	26859.38	5062.693	-248.2787	1	5068.778	-2.807584	1.232557E-008	0.1704195	6	2.171152E-006	0.0110519	-327.6624
	5	13	19359.38	5124.681	-385.9537	1	5139.194	-4.306971	1.186235E-008	0.1704162	6	2.057502E-006	0.0105973	-327.6624
	6	14	13921.87	5204.241	-527.4216	1	5230.898	-5.786859	1.216065E-008	0.170424	6	1.96848E-006	0.0103087	-327.6624
	7	16	10078.13	5300.257	-678.8778	1	5343.557	-7.298928	1.234611E-008	0.1704181	6	1.897318E-006	0.0101445	-327.6624
	8	18	7265.625	5417.958	-851.0658	1	5484.395	-8.927209	1.233219E-008	0.1704187	6	1.835174E-006	0.010068	-327.6624
	9	19	5203.125	5561.927	-1056.221	1	5661.328	-10.75255	1.209326E-008	0.1704137	6	1.770454E-006	0.0100247	-327.6624
	10	21	3722.427	5734.927	-1302.722	1	5881.027	-12.79789	1.255815E-008	0.1704201	6	1.700898E-006	0.0100038	-327.6624
	11	23	2659.255	5945.571	-1602.208	1	6157.669	-15.08176	1.237516E-008	0.1704226	6	1.622879E-006	0.0099936	-327.6624
	12	24	1938.101	6183.853	-1943.659	1	6482.117	-17.44856	1.209981E-008	0.1704192	6	1.542438E-006	0.0099985	-327.6624
	13	26	1397.236	6481.101	-2377.691	1	6903.483	-20.14633	1.252002E-008	0.1704229	6	1.447444E-006	0.0099925	-327.6624
	14	27	998.264	6850.647	-2924.817	1	7448.888	-23.11959	1.196304E-008	0.1704144	6	1.341367E-006	0.0099918	-327.6624
	15	29	724.4318	7283.104	-3568.091	1	8110.172	-26.10086	1.212751E-008	0.170416	6	1.233172E-006	0.0100013	-327.6624
	16	31	516.4195	7841.546	-4406.38	1	8994.777	-29.33283	1.174003E-008	0.1704132	6	1.111155E-006	0.0099946	-327.6624
	17	32	370.0658	8517.725	-5424.112	1	10098.15	-32.48911	1.059882E-010	0.1704611	6	9.930384E-007	0.0100182	-327.6624
	18	34	268.9549	9312.843	-6625.572	1	11429.23	-35.42974	5.417466E-011	0.1704643	6	8.766895E-007	0.0100139	-327.6624
	19	36	192.1107	10345.3	-8183.162	1	13190.5	-38.3441	7.247891E-011	0.1704621	6	7.575988E-007	0.0099898	-327.6624
	20	37	137.8676	11603.45	-10076.9	1	15368.28	-40.97236	1.477551E-010	0.1704602	6	6.503682E-007	0.0099933	-327.6624
	21	39	100.4464	13079	-12289.12	1	17946.66	-43.21658	1.496772E-010	0.1704612	6	5.566127E-007	0.0099884	-327.6624
	22	40	71.74745	15009.23	-15168.46	1	21339.15	-45.30231	1.508678E-010	0.1704624	6	4.679769E-007	0.0099857	-327.6624
	23	42	49.86702	17610.03	-19034.92	1	25931.47	-47.22675	2.668257E-010	0.1704649	6	3.839822E-007	0.009957	-327.6624
	24	44	37.20238	20192.11	-22863.36	1	30503.35	-48.55019	3.155885E-010	0.1704642	6	3.242065E-007	0.0098893	-327.6624
	25	45	27.25291	23490	-27737.69	1	36347.75	-49.74	6.912293E-011	0.1704629	5	2.634113E-007	0.0095743	-327.6624
	26	47	19.21107	28050.06	-34642.87	1	44575.05	-51.00318	-4.03931E-009	0.1705143	5	2.392675E-007	0.0106653	-327.6624
	27	48	13.95089	33365.03	-42207.49	1	53802.39	-51.67363	-3.225358E-009	0.1705138	5	1.86081E-007	0.0100116	-327.6624
	28	50	9.93114	40219.34	-51413.56	1	65275.95	-51.96495	-1.374441E-009	0.1705138	5	1.533519E-007	0.0100102	-327.6624
	29	52	7.233796	47346.16	-61389.6	1	77526.39	-52.35913	-7.659432E-010	0.1705147	5	1.290796E-007	0.0100071	-327.6624
	30	54	5.208333	54627.05	-73790.71	1	91810.59	-53.48756	-2.255414E-010	0.1705178	5	1.090051E-007	0.0100078	-327.6624
	31	56	3.75601	60963.52	-90158.02	1	108834.8	-55.93402	-9.516615E-011	0.1705136	5	9.194822E-008	0.0100072	-327.6624
	32	59	2.703287	66138.09	-113380.1	1	131260.4	-59.74367	-1.774325E-011	0.1705164	5	7.62406E-008	0.0100074	-327.6624
	33	62	1.914829	70538.45	-148757.1	1	164633.9	-64.63037	4.15401E-012	0.1705155	5	5.997962E-008	0.0099217	-327.6624
	34	66	1.392603	73986.34	-195491.7	1	209023.9	-69.27021	2.012701E-011	0.1705129	5	4.803235E-008	0.0100646	-327.6624
	35	71	0.999041	77343.21	-264077	1	275170.2	-73.67567	1.839251E-011	0.1705142	5	3.636142E-008	0.0100181	-327.6624
	36	77	0.7211539	80775.84	-358344.4	1	367335.6	-77.29704	5.52608E-012	0.1705103	4	2.714398E-008	0.0099774	-327.6624
	37	84	0.5208334	84322.46	-489234.4	1	496448	-80.22081	8.159751E-012	0.1705143	4	2.016204E-008	0.0100127	-327.6624
	38	93	0.375	88502.76	-672709.4	1	678506.2	-82.50512	1.082742E-011	0.1705122	4	1.475006E-008	0.0100097	-327.6624
	39	106	0.2693966	93586.2	-929393.9	1	934093.9	-84.24993	1.191384E-011	0.1705093	4	1.071031E-008	0.0100053	-327.6624
	40	122	0.1936983	99903.8	-1285119	1	1288996	-85.55482	1.173495E-011	0.1705057	4	7.761338E-009	0.0100048	-327.6624
	41	144	0.1390949	108083.9	-1781148	1	1784424	-86.52743	1.354671E-011	0.1705098	4	5.603929E-009	0.01	-327.6624
	42	172	0.1001603	119004.4	-2463761	1	2466633	-87.23465	1.363019E-011	0.1705158	4	4.054918E-009	0.0100021	-327.6624
