EXPLAIN
TAG	EISPOT
TITLE	LABEL	Potentiostatic EIS	Test Identifier
DATE	LABEL	5/9/2025	Date
TIME	LABEL	16:16:57	Time
NOTES	NOTES	1	Notes...
	
PSTAT	PSTAT	REF600P-43058	Potentiostat
VDC	POTEN	0.00000E+000	T	DC Voltage (V)
FREQINIT	QUANT	1.00000E+005	Initial Freq. (Hz)
FREQFINAL	QUANT	1.00000E-001	Final Freq. (Hz)
PTSPERDEC	QUANT	7.00000E+000	Points/decade
VAC	QUANT	1.00000E+001	AC Voltage (mV rms)
AREA	QUANT	1.00000E+000	Sample Area (cm^2)
SPEED	SELECTOR	1	Optimize for:
DRIFTCOR	SELECTOR	0	Drift Correction
THD	SELECTOR	0	THD
ZGUESS	QUANT	1.00000E+002	Estimated Z (ohms)
EOC	QUANT	0.3165924	Open Circuit (V)
SEQUENCER	TOGGLE	TRUE	Run as Sequence
PSTATMODEL	IQUANT	7	Pstat Model
PSTATSECTION	LABEL	REF600P-43058	Pstat Section
PSTATSERIALNO	LABEL	43058	Pstat Serial Number
CTRLMODE	IQUANT	1	Control Mode
ELECTROMETER	IQUANT	0	RE=0 or CS=1
IESTAB	IQUANT	0	I/E Stability
CASPEED	IQUANT	3	Control Amp Speed
CONVENTION	IQUANT	1	Current Convention
ICHRANGE	IQUANT	2	Ich Range
ICHRANGEMODE	TOGGLE	F	Ich Auto Range
ICHOFFSETENABLE	TOGGLE	T	Ich Offset Enable
ICHOFFSET	QUANT	0	Ich Offset (V)
ICHFILTER	IQUANT	3	Ich Filter
VCHRANGE	IQUANT	2	Vch Range
VCHRANGEMODE	TOGGLE	F	Vch Auto Range
VCHOFFSETENABLE	TOGGLE	T	Vch Offset Enable
VCHOFFSET	QUANT	0	Vch Offset (V)
VCHFILTER	IQUANT	3	Vch Filter
ACHRANGE	IQUANT	2	Ach Range
ACHOFFSETENABLE	TOGGLE	F	Ach Offset Enable
ACHOFFSET	QUANT	0	Ach Offset (V)
ACHFILTER	IQUANT	1	Ach Filter
IERANGELOWERLIMIT	IQUANT	1	I/E Range Lower Limit
IERANGEMODE	TOGGLE	F	I/E AutoRange
IERANGE	IQUANT	10	I/E Range
POSFEEDENABLE	TOGGLE	F	Positive Feedback IR Comp
POSFEEDRESISTANCE	QUANT	0	Positive Feedback Resistance (ohm)
ACHSELECT	IQUANT	4	Ach Select
SENSECABLEID	IQUANT	7	Sense Cable ID
PWRCABLEID	IQUANT	7	Power Cable ID
DCCALDATE	LABEL	5/8/2025	DC Calibration Date
ACCALDATE	LABEL	5/8/2025	AC Calibration Date
THERMOSELECT	IQUANT	1	Thermo Select
FRAMEWORKVERSION	LABEL	7.10.4	Framework Version
INSTRUMENTVERSION	LABEL	5.01	Instrument Version
COMMVERSION	LABEL	5.10	Communications Version
CPUPLDVERSION	LABEL	6.00	CPU PLD Version
CTRLPLDVERSION	LABEL	3.21	CTRL PLD Version
PSTATPLDVERSION	LABEL	0.00	PSTAT PLD Version
ZCURVE	TABLE
	Pt	Time	Freq	Zreal	Zimag	Zsig	Zmod	Zphz	Idc	Vdc	IERange	Imod	Vmod	Temp
	#	s	Hz	ohm	ohm	V	ohm	deg	A	V	#	A	V	degC
	0	5	100078.1	6299.358	-339.6959	1	6308.511	-3.086712	1.899984E-008	0.316482	7	1.532611E-006	0.0096925	-327.6624
	1	6	72046.88	6644.965	467.1808	1	6661.367	4.021619	1.179544E-008	0.3163964	6	1.057524E-006	0.0072593	-327.6624
	2	8	51796.87	6557.003	235.2033	1	6561.22	2.054351	1.180932E-008	0.3163972	6	1.781163E-006	0.0118711	-327.6624
	3	10	37359.37	6527.325	19.25596	1	6527.354	0.1690252	1.137067E-008	0.3163948	6	1.714533E-006	0.0112834	-327.6624
	4	11	26859.38	6527.301	-182.4147	1	6529.85	-1.600795	1.128582E-008	0.3163949	6	1.647761E-006	0.0108054	-327.6624
	5	13	19359.38	6535.906	-385.7391	1	6547.279	-3.377591	1.165086E-008	0.3163942	6	1.591727E-006	0.0104445	-327.6624
	6	15	13921.87	6548.459	-625.1785	1	6578.234	-5.453474	1.120736E-008	0.3163918	6	1.555569E-006	0.0102446	-327.6624
	7	16	10078.13	6561.983	-918.097	1	6625.898	-7.964639	1.143957E-008	0.3163916	6	1.526956E-006	0.0101235	-327.6624
	8	18	7265.625	6575.557	-1304.093	1	6703.626	-11.21759	1.169242E-008	0.3163975	6	1.500428E-006	0.0100614	-327.6624
	9	19	5203.125	6594.239	-1838.577	1	6845.754	-15.5793	1.152911E-008	0.3163949	6	1.465487E-006	0.010034	-327.6624
	10	21	3722.427	6614.762	-2570.202	1	7096.549	-21.23391	1.113266E-008	0.3163866	6	1.409969E-006	0.0100067	-327.6624
	11	23	2659.255	6640.925	-3588.781	1	7548.591	-28.38696	1.139863E-008	0.3163904	6	1.32529E-006	0.0100045	-327.6624
	12	24	1938.101	6672.55	-4905.987	1	8282.007	-36.32516	1.131299E-008	0.3163919	6	1.206992E-006	0.0099965	-327.6624
	13	26	1397.236	6714.739	-6776.008	1	9539.5	-45.26021	1.147083E-008	0.3163991	6	1.046981E-006	0.0099878	-327.6624
	14	27	998.264	6774.296	-9437.662	1	11617.25	-54.32944	1.150107E-008	0.3163949	6	8.597812E-007	0.0099884	-327.6624
	15	29	724.4318	6854.321	-12945.25	1	14647.91	-62.09944	1.141063E-008	0.3163906	6	6.818296E-007	0.0099874	-327.6624
	16	31	516.4195	6954.199	-18056.21	1	19349.1	-68.93623	1.14263E-008	0.3163905	6	5.165647E-007	0.0099951	-327.6624
	17	32	370.0658	7066.279	-25073.68	1	26050.37	-74.26107	1.781209E-010	0.3164498	6	3.846735E-007	0.0100113	-327.6624
	18	34	268.9549	7193.698	-34376.33	1	35120.96	-78.18066	2.158058E-010	0.3164505	6	2.851035E-007	0.0100071	-327.6624
	19	35	192.1107	7537.207	-47912.82	1	48502.04	-81.06002	1.305533E-011	0.3164509	5	2.061429E-007	0.0099953	-327.6624
	20	37	137.8676	7740.753	-66590.17	1	67038.57	-83.36943	-3.133493E-012	0.3164546	5	1.489437E-007	0.0099834	-327.6624
	21	38	100.4464	8006.51	-91198.2	1	91548.98	-84.98273	4.057121E-011	0.316456	5	1.090875E-007	0.009986	-327.6624
	22	40	71.74745	8405.218	-127412.5	1	127689.4	-86.22575	6.533414E-011	0.3164552	5	7.818046E-008	0.0099824	-327.6624
	23	42	49.86702	9007.857	-182806.3	1	183028.1	-87.17901	1.260613E-010	0.3164586	5	5.436564E-008	0.0099502	-327.6624
	24	43	37.20238	9668.59	-244578.3	1	244769.3	-87.73618	2.844736E-011	0.3164499	5	4.0406E-008	0.00989	-327.6624
	25	45	27.25291	10670.98	-333495.3	1	333666	-88.16731	8.208652E-011	0.3164548	5	2.890723E-008	0.0096453	-327.6624
	26	46	19.21107	14110.9	-470010.9	1	470222.7	-88.28036	2.630091E-012	0.3164985	4	2.263761E-008	0.0106451	-327.6624
	27	48	13.95089	16488.04	-645724.4	1	645934.9	-88.53732	1.458222E-011	0.3165033	4	1.548394E-008	0.0100018	-327.6624
	28	49	9.93114	19911.64	-905385	1	905603.9	-88.74013	4.087619E-012	0.3164996	4	1.104186E-008	0.0099996	-327.6624
	29	51	7.233796	24736.5	-1240761	1	1241007	-88.85787	3.886183E-012	0.3164981	4	8.058711E-009	0.010001	-327.6624
	30	53	5.208333	31932.21	-1719999	1	1720295	-88.93641	4.017175E-012	0.3164985	4	5.812994E-009	0.0100001	-327.6624
	31	55	3.75601	42846.5	-2378294	1	2378680	-88.96789	4.232569E-012	0.3165002	4	4.203937E-009	0.0099998	-327.6624
	32	59	2.703287	58996.5	-3295851	1	3296379	-88.9745	6.782578E-012	0.3165035	4	3.033783E-009	0.0100005	-327.6624
	33	62	1.914829	102423	-4642791	1	4643920	-88.73622	5.819156E-012	0.3165522	3	2.122646E-009	0.0099129	-327.6624
	34	66	1.392603	138153.4	-6364617	1	6366116	-88.75651	5.99199E-012	0.3165557	3	1.575657E-009	0.0100615	-327.6624
	35	72	0.999041	195666	-8841808	1	8843973	-88.73227	5.997057E-012	0.3165527	3	1.130694E-009	0.010016	-327.6624
	36	77	0.7211539	282412.2	-1.22015E+007	1	1.220476E+007	-88.67409	6.157568E-012	0.3165521	3	8.188467E-010	0.0100024	-327.6624
	37	85	0.5208334	416087	-1.681998E+007	1	1.682512E+007	-88.58292	6.228087E-012	0.3165567	3	5.941543E-010	0.0100012	-327.6624
	38	94	0.375	615005	-2.324293E+007	1	2.325107E+007	-88.48431	6.384951E-012	0.3165599	3	4.30042E-010	0.0100013	-327.6624
	39	106	0.2693966	906988.3	-3.217412E+007	1	3.21869E+007	-88.38526	6.417173E-012	0.3165594	3	3.107427E-010	0.0100031	-327.6624
	40	123	0.1936983	1501803	-4.459096E+007	1	4.461625E+007	-88.07104	6.273758E-012	0.3164952	2	2.239697E-010	0.0099959	-327.6624
	41	145	0.1390949	2095955	-6.170688E+007	1	6.174246E+007	-88.05462	6.203851E-012	0.3164995	2	1.619529E-010	0.010001	-327.6624
	42	173	0.1001603	2939193	-8.519074E+007	1	8.524142E+007	-88.024	6.079203E-012	0.3164979	2	1.173284E-010	0.0100021	-327.6624
