EXPLAIN
TAG	EISPOT
TITLE	LABEL	Potentiostatic EIS	Test Identifier
DATE	LABEL	5/9/2025	Date
TIME	LABEL	15:11:26	Time
NOTES	NOTES	1	Notes...
	
PSTAT	PSTAT	REF600P-43058	Potentiostat
VDC	POTEN	0.00000E+000	T	DC Voltage (V)
FREQINIT	QUANT	1.00000E+005	Initial Freq. (Hz)
FREQFINAL	QUANT	1.00000E-001	Final Freq. (Hz)
PTSPERDEC	QUANT	7.00000E+000	Points/decade
VAC	QUANT	1.00000E+001	AC Voltage (mV rms)
AREA	QUANT	1.00000E+000	Sample Area (cm^2)
SPEED	SELECTOR	1	Optimize for:
DRIFTCOR	SELECTOR	0	Drift Correction
THD	SELECTOR	0	THD
ZGUESS	QUANT	1.00000E+002	Estimated Z (ohms)
EOC	QUANT	0.1578626	Open Circuit (V)
SEQUENCER	TOGGLE	TRUE	Run as Sequence
PSTATMODEL	IQUANT	7	Pstat Model
PSTATSECTION	LABEL	REF600P-43058	Pstat Section
PSTATSERIALNO	LABEL	43058	Pstat Serial Number
CTRLMODE	IQUANT	1	Control Mode
ELECTROMETER	IQUANT	0	RE=0 or CS=1
IESTAB	IQUANT	0	I/E Stability
CASPEED	IQUANT	3	Control Amp Speed
CONVENTION	IQUANT	1	Current Convention
ICHRANGE	IQUANT	2	Ich Range
ICHRANGEMODE	TOGGLE	F	Ich Auto Range
ICHOFFSETENABLE	TOGGLE	T	Ich Offset Enable
ICHOFFSET	QUANT	0	Ich Offset (V)
ICHFILTER	IQUANT	3	Ich Filter
VCHRANGE	IQUANT	2	Vch Range
VCHRANGEMODE	TOGGLE	F	Vch Auto Range
VCHOFFSETENABLE	TOGGLE	T	Vch Offset Enable
VCHOFFSET	QUANT	0	Vch Offset (V)
VCHFILTER	IQUANT	3	Vch Filter
ACHRANGE	IQUANT	2	Ach Range
ACHOFFSETENABLE	TOGGLE	F	Ach Offset Enable
ACHOFFSET	QUANT	0	Ach Offset (V)
ACHFILTER	IQUANT	1	Ach Filter
IERANGELOWERLIMIT	IQUANT	1	I/E Range Lower Limit
IERANGEMODE	TOGGLE	F	I/E AutoRange
IERANGE	IQUANT	10	I/E Range
POSFEEDENABLE	TOGGLE	F	Positive Feedback IR Comp
POSFEEDRESISTANCE	QUANT	0	Positive Feedback Resistance (ohm)
ACHSELECT	IQUANT	4	Ach Select
SENSECABLEID	IQUANT	7	Sense Cable ID
PWRCABLEID	IQUANT	7	Power Cable ID
DCCALDATE	LABEL	5/8/2025	DC Calibration Date
ACCALDATE	LABEL	5/8/2025	AC Calibration Date
THERMOSELECT	IQUANT	1	Thermo Select
FRAMEWORKVERSION	LABEL	7.10.4	Framework Version
INSTRUMENTVERSION	LABEL	5.01	Instrument Version
COMMVERSION	LABEL	5.10	Communications Version
CPUPLDVERSION	LABEL	6.00	CPU PLD Version
CTRLPLDVERSION	LABEL	3.21	CTRL PLD Version
PSTATPLDVERSION	LABEL	0.00	PSTAT PLD Version
ZCURVE	TABLE
	Pt	Time	Freq	Zreal	Zimag	Zsig	Zmod	Zphz	Idc	Vdc	IERange	Imod	Vmod	Temp
	#	s	Hz	ohm	ohm	V	ohm	deg	A	V	#	A	V	degC
	0	5	100078.1	4807.623	-294.0204	1	4816.605	-3.499686	2.349919E-008	0.1577695	7	1.985419E-006	0.0095867	-327.6624
	1	6	72046.88	5058.77	226.7052	1	5063.847	2.565953	1.230736E-008	0.1576778	6	1.256372E-006	0.006556	-327.6624
	2	8	51796.87	5024.247	62.94238	1	5024.641	0.7177482	1.246979E-008	0.157682	6	2.403693E-006	0.0122683	-327.6624
	3	10	37359.37	5031.996	-89.13055	1	5032.785	-1.01476	1.27721E-008	0.1576805	6	2.291598E-006	0.0116279	-327.6624
	4	11	26859.38	5070.077	-232.5289	1	5075.407	-2.625916	1.22115E-008	0.1576793	6	2.167987E-006	0.0110502	-327.6624
	5	13	19359.38	5129.253	-368.4224	1	5142.468	-4.108367	1.224131E-008	0.157683	6	2.055392E-006	0.0105931	-327.6624
	6	15	13921.87	5207.354	-508.7612	1	5232.148	-5.580118	1.195137E-008	0.1576785	6	1.968636E-006	0.010312	-327.6624
	7	16	10078.13	5302.432	-654.8348	1	5342.714	-7.040214	1.238625E-008	0.1576834	6	1.897922E-006	0.0101461	-327.6624
	8	18	7265.625	5418.234	-821.6735	1	5480.184	-8.623182	1.239986E-008	0.157686	6	1.836253E-006	0.0100661	-327.6624
	9	19	5203.125	5559.872	-1016.414	1	5652.015	-10.35998	1.229515E-008	0.157681	6	1.773515E-006	0.0100255	-327.6624
	10	21	3722.427	5732.22	-1250.35	1	5867.003	-12.305	1.230545E-008	0.1576815	6	1.70556E-006	0.0100073	-327.6624
	11	23	2659.255	5937.183	-1530.664	1	6131.319	-14.45661	1.260595E-008	0.1576809	6	1.630252E-006	0.009996	-327.6624
	12	24	1938.101	6168.321	-1850.997	1	6440.06	-16.70351	1.2322E-008	0.1576805	6	1.551654E-006	0.009993	-327.6624
	13	26	1397.236	6456.511	-2255.326	1	6839.081	-19.25484	1.219542E-008	0.1576769	6	1.461568E-006	0.0099959	-327.6624
	14	27	998.264	6812.212	-2764.437	1	7351.758	-22.08761	1.219373E-008	0.1576804	6	1.359161E-006	0.0099923	-327.6624
	15	29	724.4318	7223.53	-3361.963	1	7967.57	-24.95813	1.219185E-008	0.157681	6	1.254953E-006	0.009999	-327.6624
	16	31	516.4195	7753.061	-4138.992	1	8788.698	-28.09565	1.184245E-008	0.1576737	6	1.137699E-006	0.0099989	-327.6624
	17	32	370.0658	8394.719	-5083.792	1	9814.08	-31.19885	2.315401E-010	0.157728	6	1.021661E-006	0.010017	-327.6624
	18	34	268.9549	9144.006	-6196.737	1	11045.92	-34.12482	2.049343E-010	0.1577275	6	9.069504E-007	0.0100121	-327.6624
	19	36	192.1107	10114.5	-7639.332	1	12675.27	-37.06322	1.413616E-010	0.1577258	6	7.886198E-007	0.0099927	-327.6624
	20	37	137.8676	11292.8	-9393.056	1	14688.66	-39.7528	8.610562E-011	0.1577241	6	6.804044E-007	0.0099925	-327.6624
	21	39	100.4464	12670.68	-11442.23	1	17072.51	-42.08353	3.760179E-010	0.157726	6	5.850612E-007	0.0099875	-327.6624
	22	41	71.74745	14469.35	-14108.81	1	20209.41	-44.2772	2.187552E-010	0.1577264	6	4.942763E-007	0.0099885	-327.6624
	23	42	49.86702	16887.54	-17690.81	1	24457.18	-46.33078	3.296571E-010	0.1577243	6	4.069117E-007	0.0099517	-327.6624
	24	44	37.20238	19278	-21243.14	1	28686.45	-47.77648	2.90491E-010	0.1577214	6	3.447876E-007	0.0098906	-327.6624
	25	45	27.25291	22360.42	-25778.49	1	34125.05	-49.06143	2.955145E-010	0.1577207	5	2.803301E-007	0.0095662	-327.6624
	26	47	19.21107	26653.34	-32165.68	1	41773.58	-50.35395	-4.446841E-009	0.1577781	5	2.554289E-007	0.0106701	-327.6624
	27	48	13.95089	31586.33	-39003.2	1	50189.1	-50.99809	-3.290189E-009	0.1577725	5	1.995178E-007	0.0100136	-327.6624
	28	50	9.93114	37600.38	-47208.68	1	60352.69	-51.46367	-1.178822E-009	0.1577745	5	1.65859E-007	0.01001	-327.6624
	29	52	7.233796	43419.68	-56357.68	1	71143.91	-52.38825	-5.928487E-010	0.157776	5	1.406854E-007	0.0100089	-327.6624
	30	53	5.208333	48918.62	-68400.18	1	84092.9	-54.42831	-1.419762E-010	0.1577776	5	1.190192E-007	0.0100087	-327.6624
	31	56	3.75601	53424.16	-85031.22	1	100421.4	-57.85931	-4.965206E-011	0.1577767	5	9.96572E-008	0.0100077	-327.6624
	32	58	2.703287	57031.11	-109053.4	1	123065.8	-62.39201	-1.907613E-011	0.1577802	5	8.132272E-008	0.010008	-327.6624
	33	61	1.914829	60169.59	-145519.8	1	157468.7	-67.53587	3.3131E-012	0.157772	5	6.272116E-008	0.0099236	-327.6624
	34	66	1.392603	62711.17	-193397.1	1	203310.4	-72.03413	1.348699E-011	0.1577741	5	4.937817E-008	0.0100638	-327.6624
	35	71	0.999041	65286.3	-263343.5	1	271315.5	-76.07635	7.415957E-012	0.1577709	5	3.687647E-008	0.0100176	-327.6624
	36	77	0.7211539	68058.8	-359229.4	1	365619.7	-79.27202	2.20382E-012	0.1577741	4	2.728397E-008	0.009982	-327.6624
	37	84	0.5208334	71105.41	-492118.5	1	497228.9	-81.77833	4.578227E-012	0.1577757	4	2.01317E-008	0.0100134	-327.6624
	38	93	0.375	74761.07	-678119.3	1	682227.9	-83.70868	7.015305E-012	0.1577783	4	1.466508E-008	0.0100067	-327.6624
	39	106	0.2693966	79299.13	-938114.6	1	941460.2	-85.16826	6.530151E-012	0.1577724	4	1.062519E-008	0.0100041	-327.6624
	40	122	0.1936983	85072.2	-1298357	1	1301141	-86.25117	9.1082E-012	0.1577731	4	7.68781E-009	0.0100034	-327.6624
	41	144	0.1390949	92609.31	-1800847	1	1803227	-87.05614	8.859191E-012	0.1577764	4	5.546339E-009	0.0100015	-327.6624
	42	172	0.1001603	102718.3	-2492113	1	2494229	-87.63976	1.102914E-011	0.1577752	4	4.010045E-009	0.0100021	-327.6624
