EXPLAIN
TAG	EISPOT
TITLE	LABEL	Potentiostatic EIS	Test Identifier
DATE	LABEL	5/9/2025	Date
TIME	LABEL	15:41:44	Time
NOTES	NOTES	1	Notes...
	
PSTAT	PSTAT	REF600P-43058	Potentiostat
VDC	POTEN	0.00000E+000	T	DC Voltage (V)
FREQINIT	QUANT	1.00000E+005	Initial Freq. (Hz)
FREQFINAL	QUANT	1.00000E-001	Final Freq. (Hz)
PTSPERDEC	QUANT	7.00000E+000	Points/decade
VAC	QUANT	1.00000E+001	AC Voltage (mV rms)
AREA	QUANT	1.00000E+000	Sample Area (cm^2)
SPEED	SELECTOR	1	Optimize for:
DRIFTCOR	SELECTOR	0	Drift Correction
THD	SELECTOR	0	THD
ZGUESS	QUANT	1.00000E+002	Estimated Z (ohms)
EOC	QUANT	0.1477523	Open Circuit (V)
SEQUENCER	TOGGLE	TRUE	Run as Sequence
PSTATMODEL	IQUANT	7	Pstat Model
PSTATSECTION	LABEL	REF600P-43058	Pstat Section
PSTATSERIALNO	LABEL	43058	Pstat Serial Number
CTRLMODE	IQUANT	1	Control Mode
ELECTROMETER	IQUANT	0	RE=0 or CS=1
IESTAB	IQUANT	0	I/E Stability
CASPEED	IQUANT	3	Control Amp Speed
CONVENTION	IQUANT	1	Current Convention
ICHRANGE	IQUANT	2	Ich Range
ICHRANGEMODE	TOGGLE	F	Ich Auto Range
ICHOFFSETENABLE	TOGGLE	T	Ich Offset Enable
ICHOFFSET	QUANT	0	Ich Offset (V)
ICHFILTER	IQUANT	3	Ich Filter
VCHRANGE	IQUANT	2	Vch Range
VCHRANGEMODE	TOGGLE	F	Vch Auto Range
VCHOFFSETENABLE	TOGGLE	T	Vch Offset Enable
VCHOFFSET	QUANT	0	Vch Offset (V)
VCHFILTER	IQUANT	3	Vch Filter
ACHRANGE	IQUANT	2	Ach Range
ACHOFFSETENABLE	TOGGLE	F	Ach Offset Enable
ACHOFFSET	QUANT	0	Ach Offset (V)
ACHFILTER	IQUANT	1	Ach Filter
IERANGELOWERLIMIT	IQUANT	1	I/E Range Lower Limit
IERANGEMODE	TOGGLE	F	I/E AutoRange
IERANGE	IQUANT	10	I/E Range
POSFEEDENABLE	TOGGLE	F	Positive Feedback IR Comp
POSFEEDRESISTANCE	QUANT	0	Positive Feedback Resistance (ohm)
ACHSELECT	IQUANT	4	Ach Select
SENSECABLEID	IQUANT	7	Sense Cable ID
PWRCABLEID	IQUANT	7	Power Cable ID
DCCALDATE	LABEL	5/8/2025	DC Calibration Date
ACCALDATE	LABEL	5/8/2025	AC Calibration Date
THERMOSELECT	IQUANT	1	Thermo Select
FRAMEWORKVERSION	LABEL	7.10.4	Framework Version
INSTRUMENTVERSION	LABEL	5.01	Instrument Version
COMMVERSION	LABEL	5.10	Communications Version
CPUPLDVERSION	LABEL	6.00	CPU PLD Version
CTRLPLDVERSION	LABEL	3.21	CTRL PLD Version
PSTATPLDVERSION	LABEL	0.00	PSTAT PLD Version
ZCURVE	TABLE
	Pt	Time	Freq	Zreal	Zimag	Zsig	Zmod	Zphz	Idc	Vdc	IERange	Imod	Vmod	Temp
	#	s	Hz	ohm	ohm	V	ohm	deg	A	V	#	A	V	degC
	0	5	100078.1	4589.527	-300.1182	1	4599.33	-3.741357	2.572399E-008	0.1477522	7	2.075554E-006	0.0095698	-327.6624
	1	6	72046.88	4841.005	197.2333	1	4845.021	2.333067	1.241969E-008	0.1476625	6	1.289898E-006	0.0064401	-327.6624
	2	8	51796.87	4813.902	36.53265	1	4814.041	0.4348088	1.252939E-008	0.1476591	6	2.52308E-006	0.0123379	-327.6624
	3	10	37359.37	4827.563	-114.4778	1	4828.919	-1.358422	1.25619E-008	0.1476595	6	2.402695E-006	0.0116978	-327.6624
	4	11	26859.38	4871.523	-256.3489	1	4878.264	-3.012236	1.225718E-008	0.1476648	6	2.265585E-006	0.0110991	-327.6624
	5	13	19359.38	4937.305	-391.6174	1	4952.812	-4.535095	1.230609E-008	0.1476602	6	2.139945E-006	0.0106222	-327.6624
	6	15	13921.87	5023.4	-526.7994	1	5050.947	-5.986675	1.235465E-008	0.1476617	6	2.04227E-006	0.0103272	-327.6624
	7	16	10078.13	5124.738	-669.4836	1	5168.283	-7.442835	1.205463E-008	0.1476634	6	1.962645E-006	0.0101496	-327.6624
	8	18	7265.625	5245.604	-828.2222	1	5310.585	-8.972296	1.221513E-008	0.1476628	6	1.894947E-006	0.0100664	-327.6624
	9	19	5203.125	5394.221	-1014.938	1	5488.872	-10.65579	1.204825E-008	0.1476563	6	1.826473E-006	0.0100269	-327.6624
	10	21	3722.427	5568.255	-1233.901	1	5703.33	-12.49459	1.221203E-008	0.1476572	6	1.754069E-006	0.0100049	-327.6624
	11	23	2659.255	5776.678	-1498.865	1	5967.965	-14.54568	1.213857E-008	0.1476579	6	1.674124E-006	0.0099915	-327.6624
	12	24	1938.101	6007.688	-1798.551	1	6271.132	-16.66638	1.227811E-008	0.1476665	6	1.593396E-006	0.0099926	-327.6624
	13	26	1397.236	6291.3	-2176.919	1	6657.284	-19.08668	1.214873E-008	0.1476627	6	1.501658E-006	0.0099971	-327.6624
	14	27	998.264	6642.511	-2654.058	1	7153.109	-21.7795	1.198867E-008	0.1476642	6	1.397536E-006	0.0099968	-327.6624
	15	29	724.4318	7043.671	-3210.289	1	7740.753	-24.50204	1.217536E-008	0.1476574	6	1.291481E-006	0.0099971	-327.6624
	16	31	516.4195	7554.338	-3932.84	1	8516.763	-27.50179	1.209161E-008	0.1476648	6	1.173839E-006	0.0099973	-327.6624
	17	32	370.0658	8173.282	-4810.9	1	9484.055	-30.48162	3.004521E-010	0.1477046	6	1.056955E-006	0.0100146	-327.6624
	18	34	268.9549	8890.838	-5841.943	1	10638.39	-33.3079	1.095071E-010	0.147711	6	9.419403E-007	0.0100147	-327.6624
	19	35	192.1107	9813.33	-7176.794	1	12157.62	-36.17916	1.307408E-010	0.1477143	6	8.220193E-007	0.0099905	-327.6624
	20	37	137.8676	10928.13	-8798.527	1	14029.9	-38.83847	1.389431E-010	0.1477053	6	7.122382E-007	0.0099909	-327.6624
	21	39	100.4464	12226.45	-10691.55	1	16241.78	-41.16844	2.955892E-010	0.1477121	6	6.153832E-007	0.009994	-327.6624
	22	40	71.74745	13910.45	-13156.15	1	19146.41	-43.40369	3.692693E-010	0.1477142	6	5.214707E-007	0.0099838	-327.6624
	23	42	49.86702	16165.79	-16472.36	1	23079.67	-45.53817	3.027849E-010	0.1477142	6	4.313376E-007	0.0099549	-327.6624
	24	43	37.20238	18389.95	-19752.16	1	26987.74	-47.04539	1.108933E-010	0.1477106	6	3.663684E-007	0.0098873	-327.6624
	25	45	27.25291	21297.73	-23945.47	1	32046.51	-48.34926	-2.633943E-011	0.1477103	5	2.984175E-007	0.0095632	-327.6624
	26	47	19.21107	25318.74	-29774.53	1	39084.03	-49.62386	-4.663615E-009	0.1477566	5	2.730485E-007	0.0106718	-327.6624
	27	48	13.95089	29748.01	-35878.9	1	46607.29	-50.3371	-3.122849E-009	0.147755	5	2.147935E-007	0.0100109	-327.6624
	28	50	9.93114	34795.48	-43301.78	1	55549.71	-51.21611	-9.545826E-010	0.1477534	5	1.802557E-007	0.0100131	-327.6624
	29	52	7.233796	39351.05	-51991.23	1	65204.25	-52.8787	-4.403452E-010	0.1477515	5	1.535234E-007	0.0100104	-327.6624
	30	54	5.208333	43401.2	-64049.18	1	77369	-55.87753	-9.858159E-011	0.1477537	5	1.293719E-007	0.0100094	-327.6624
	31	56	3.75601	46652.44	-81110.7	1	93570.27	-60.09378	-3.465861E-011	0.1477582	5	1.069742E-007	0.0100096	-327.6624
	32	58	2.703287	49323.93	-105739.3	1	116677.5	-64.99248	4.785561E-012	0.1477568	5	8.577698E-008	0.0100082	-327.6624
	33	62	1.914829	51779.48	-142861	1	151955.2	-70.07713	1.132208E-011	0.147756	5	6.500349E-008	0.0099246	-327.6624
	34	66	1.392603	53859.3	-191263.4	1	198702.1	-74.27291	5.184131E-012	0.1477527	5	5.052328E-008	0.0100638	-327.6624
	35	71	0.999041	56044.11	-261700.1	1	267633.9	-77.91246	2.178527E-011	0.1477503	5	3.738077E-008	0.0100168	-327.6624
	36	77	0.7211539	58482.57	-358076.1	1	362820.5	-80.7241	2.631978E-012	0.1477519	4	2.75012E-008	0.0099844	-327.6624
	37	84	0.5208334	61250.74	-491459.1	1	495261.2	-82.89584	4.125575E-012	0.1477506	4	2.020731E-008	0.0100112	-327.6624
	38	93	0.375	64618.49	-678044.3	1	681116.4	-84.55608	5.631939E-012	0.1477537	4	1.468994E-008	0.0100073	-327.6624
	39	106	0.2693966	68869.93	-938775.5	1	941298.3	-85.80421	6.59893E-012	0.1477583	4	1.062758E-008	0.0100046	-327.6624
	40	122	0.1936983	74289.75	-1300004	1	1302125	-86.72935	8.374461E-012	0.1477531	4	7.68074E-009	0.0100017	-327.6624
	41	144	0.1390949	81477.39	-1803693	1	1805533	-87.41356	9.365883E-012	0.1477521	4	5.538619E-009	0.0100004	-327.6624
	42	172	0.1001603	91338.39	-2496637	1	2498307	-87.90479	8.575946E-012	0.1477543	4	4.00331E-009	0.0100016	-327.6624
