EXPLAIN
TAG	EISPOT
TITLE	LABEL	Potentiostatic EIS	Test Identifier
DATE	LABEL	5/9/2025	Date
TIME	LABEL	14:50:10	Time
NOTES	NOTES	1	Notes...
	
PSTAT	PSTAT	REF600P-43058	Potentiostat
VDC	POTEN	0.00000E+000	T	DC Voltage (V)
FREQINIT	QUANT	1.00000E+005	Initial Freq. (Hz)
FREQFINAL	QUANT	1.00000E-001	Final Freq. (Hz)
PTSPERDEC	QUANT	7.00000E+000	Points/decade
VAC	QUANT	1.00000E+001	AC Voltage (mV rms)
AREA	QUANT	1.00000E+000	Sample Area (cm^2)
SPEED	SELECTOR	1	Optimize for:
DRIFTCOR	SELECTOR	0	Drift Correction
THD	SELECTOR	0	THD
ZGUESS	QUANT	1.00000E+002	Estimated Z (ohms)
EOC	QUANT	0.1683657	Open Circuit (V)
SEQUENCER	TOGGLE	TRUE	Run as Sequence
PSTATMODEL	IQUANT	7	Pstat Model
PSTATSECTION	LABEL	REF600P-43058	Pstat Section
PSTATSERIALNO	LABEL	43058	Pstat Serial Number
CTRLMODE	IQUANT	1	Control Mode
ELECTROMETER	IQUANT	0	RE=0 or CS=1
IESTAB	IQUANT	0	I/E Stability
CASPEED	IQUANT	3	Control Amp Speed
CONVENTION	IQUANT	1	Current Convention
ICHRANGE	IQUANT	2	Ich Range
ICHRANGEMODE	TOGGLE	F	Ich Auto Range
ICHOFFSETENABLE	TOGGLE	T	Ich Offset Enable
ICHOFFSET	QUANT	0	Ich Offset (V)
ICHFILTER	IQUANT	3	Ich Filter
VCHRANGE	IQUANT	2	Vch Range
VCHRANGEMODE	TOGGLE	F	Vch Auto Range
VCHOFFSETENABLE	TOGGLE	T	Vch Offset Enable
VCHOFFSET	QUANT	0	Vch Offset (V)
VCHFILTER	IQUANT	3	Vch Filter
ACHRANGE	IQUANT	2	Ach Range
ACHOFFSETENABLE	TOGGLE	F	Ach Offset Enable
ACHOFFSET	QUANT	0	Ach Offset (V)
ACHFILTER	IQUANT	1	Ach Filter
IERANGELOWERLIMIT	IQUANT	1	I/E Range Lower Limit
IERANGEMODE	TOGGLE	F	I/E AutoRange
IERANGE	IQUANT	10	I/E Range
POSFEEDENABLE	TOGGLE	F	Positive Feedback IR Comp
POSFEEDRESISTANCE	QUANT	0	Positive Feedback Resistance (ohm)
ACHSELECT	IQUANT	4	Ach Select
SENSECABLEID	IQUANT	7	Sense Cable ID
PWRCABLEID	IQUANT	7	Power Cable ID
DCCALDATE	LABEL	5/8/2025	DC Calibration Date
ACCALDATE	LABEL	5/8/2025	AC Calibration Date
THERMOSELECT	IQUANT	1	Thermo Select
FRAMEWORKVERSION	LABEL	7.10.4	Framework Version
INSTRUMENTVERSION	LABEL	5.01	Instrument Version
COMMVERSION	LABEL	5.10	Communications Version
CPUPLDVERSION	LABEL	6.00	CPU PLD Version
CTRLPLDVERSION	LABEL	3.21	CTRL PLD Version
PSTATPLDVERSION	LABEL	0.00	PSTAT PLD Version
ZCURVE	TABLE
	Pt	Time	Freq	Zreal	Zimag	Zsig	Zmod	Zphz	Idc	Vdc	IERange	Imod	Vmod	Temp
	#	s	Hz	ohm	ohm	V	ohm	deg	A	V	#	A	V	degC
	0	5	100078.1	4771.286	-319.5671	1	4781.976	-3.831785	2.449179E-008	0.1682351	7	1.998522E-006	0.0095806	-327.6624
	1	7	72046.88	5025.41	191.1843	1	5029.045	2.178682	1.25577E-008	0.1681549	6	1.264266E-006	0.0065518	-327.6624
	2	9	51796.87	4996.757	33.03376	1	4996.867	0.3787791	1.269983E-008	0.1681552	6	2.419074E-006	0.0122786	-327.6624
	3	10	37359.37	5009.268	-116.4358	1	5010.621	-1.331548	1.250192E-008	0.1681595	6	2.304283E-006	0.0116408	-327.6624
	4	12	26859.38	5051.568	-256.8802	1	5058.096	-2.911072	1.194761E-008	0.1681572	6	2.175749E-006	0.0110519	-327.6624
	5	13	19359.38	5114.675	-391.6395	1	5129.647	-4.378692	1.215589E-008	0.1681559	6	2.060734E-006	0.0105942	-327.6624
	6	15	13921.87	5195.165	-529.7243	1	5222.102	-5.822036	1.200619E-008	0.168155	6	1.971533E-006	0.0103073	-327.6624
	7	17	10078.13	5291.648	-676.8304	1	5334.758	-7.288864	1.202181E-008	0.1681566	6	1.900489E-006	0.0101447	-327.6624
	8	18	7265.625	5410.192	-843.6293	1	5475.572	-8.862947	1.188275E-008	0.1681532	6	1.837907E-006	0.0100667	-327.6624
	9	20	5203.125	5554.148	-1042.498	1	5651.138	-10.63057	1.224811E-008	0.1681548	6	1.774019E-006	0.0100268	-327.6624
	10	22	3722.427	5726.408	-1281.254	1	5867.994	-12.61191	1.20981E-008	0.1681539	6	1.704483E-006	0.0100027	-327.6624
	11	23	2659.255	5935.72	-1571.093	1	6140.123	-14.82534	1.256846E-008	0.1681583	6	1.628158E-006	0.0099975	-327.6624
	12	25	1938.101	6171.851	-1901.249	1	6458.057	-17.12154	1.186836E-008	0.1681539	6	1.547292E-006	0.0099927	-327.6624
	13	26	1397.236	6462.904	-2317.208	1	6865.754	-19.72477	1.213573E-008	0.1681562	6	1.455524E-006	0.0099934	-327.6624
	14	28	998.264	6827.734	-2847.507	1	7397.719	-22.63858	1.248182E-008	0.1681589	6	1.351568E-006	0.0099986	-327.6624
	15	30	724.4318	7248.421	-3466.066	1	8034.502	-25.5563	1.203644E-008	0.1681517	6	1.244074E-006	0.0099955	-327.6624
	16	31	516.4195	7791.375	-4277.917	1	8888.537	-28.76934	1.177392E-008	0.1681495	6	1.12445E-006	0.0099947	-327.6624
	17	33	370.0658	8450.516	-5257.464	1	9952.49	-31.88769	1.827969E-010	0.168197	6	1.007513E-006	0.0100176	-327.6624
	18	34	268.9549	9222.677	-6416.079	1	11234.94	-34.82576	2.011017E-010	0.1682032	6	8.918006E-007	0.0100133	-327.6624
	19	36	192.1107	10223.05	-7918.822	1	12931.3	-37.76152	2.067146E-010	0.1682041	6	7.730571E-007	0.0099933	-327.6624
	20	38	137.8676	11440.22	-9746.28	1	15028.92	-40.42871	2.857385E-010	0.1681995	6	6.647393E-007	0.0099885	-327.6624
	21	39	100.4464	12867.27	-11881.68	1	17514.02	-42.71948	3.300932E-010	0.1682038	6	5.705604E-007	0.0099919	-327.6624
	22	41	71.74745	14728.78	-14663.76	1	20783.72	-44.87326	9.376505E-011	0.1682051	6	4.804543E-007	0.0099851	-327.6624
	23	42	49.86702	17235.67	-18399.86	1	25211.57	-46.87115	3.148122E-010	0.1682051	6	3.949135E-007	0.0099561	-327.6624
	24	44	37.20238	19723.08	-22103.26	1	29623.54	-48.25697	5.260716E-010	0.1682056	6	3.338478E-007	0.0098896	-327.6624
	25	46	27.25291	22906.74	-26842.2	1	35287.71	-49.52304	-1.551923E-010	0.1682122	5	2.712292E-007	0.009571	-327.6624
	26	47	19.21107	27329.82	-33532.39	1	43258.98	-50.81902	-4.223833E-009	0.1682636	5	2.46602E-007	0.0106677	-327.6624
	27	48	13.95089	32476.45	-40810.26	1	52155.5	-51.48753	-3.287103E-009	0.1682596	5	1.919809E-007	0.0100128	-327.6624
	28	50	9.93114	39003.65	-49617.04	1	63112.09	-51.82933	-1.320514E-009	0.1682559	5	1.586019E-007	0.0100097	-327.6624
	29	52	7.233796	45651.21	-59227.74	1	74779.4	-52.37589	-7.110332E-010	0.1682503	5	1.338354E-007	0.0100081	-327.6624
	30	53	5.208333	52242.51	-71392.51	1	88465.64	-53.80466	-1.827508E-010	0.1682497	5	1.131199E-007	0.0100072	-327.6624
	31	56	3.75601	57849.73	-87727.02	1	105083.9	-56.59799	-7.073336E-011	0.1682497	5	9.523067E-008	0.0100072	-327.6624
	32	58	2.703287	62370.75	-111086.2	1	127398	-60.68742	-9.646395E-012	0.1682542	5	7.854975E-008	0.0100071	-327.6624
	33	61	1.914829	66195.37	-146682.7	1	160927.4	-65.71117	-8.776341E-012	0.1682496	5	6.137259E-008	0.0099235	-327.6624
	34	66	1.392603	69181.74	-193632.8	1	205620.5	-70.33904	2.685185E-012	0.1682446	5	4.88232E-008	0.0100638	-327.6624
	35	71	0.999041	72085.78	-262474	1	272192.9	-74.64294	2.467504E-011	0.1682461	5	3.675862E-008	0.0100179	-327.6624
	36	77	0.7211539	75117.83	-357049.9	1	364866.2	-78.11911	6.374429E-012	0.1682502	4	2.733195E-008	0.0099789	-327.6624
	37	84	0.5208334	78379.59	-488305.1	1	494555.6	-80.88103	7.338047E-012	0.1682529	4	2.024118E-008	0.0100137	-327.6624
	38	93	0.375	82275.08	-672210.3	1	677226.6	-83.022	6.258966E-012	0.1682508	4	1.477728E-008	0.0100093	-327.6624
	39	105	0.2693966	87030.27	-929270.9	1	933337.4	-84.6496	9.236646E-012	0.1682505	4	1.071735E-008	0.0100038	-327.6624
	40	122	0.1936983	93071.02	-1285675	1	1289039	-85.85954	8.357461E-012	0.1682504	4	7.761017E-009	0.0100047	-327.6624
	41	144	0.1390949	100908.5	-1782412	1	1785266	-86.75975	1.122451E-011	0.1682437	4	5.601981E-009	0.0100013	-327.6624
	42	172	0.1001603	111397.4	-2465938	1	2468453	-87.41345	1.144921E-011	0.1682498	4	4.05147E-009	0.010001	-327.6624
