EXPLAIN
TAG	EISPOT
TITLE	LABEL	Potentiostatic EIS	Test &Identifier
DATE	LABEL	4/24/2025	Date
TIME	LABEL	12:47:49	Time
NOTES	NOTES	1	&Notes...
	
PSTAT	PSTAT	IFC1010-32247	Potentiostat
VDC	POTEN	0.00000E+000	T	DC &Voltage (V)
FREQINIT	QUANT	1.00000E+005	Initial Fre&q. (Hz)
FREQFINAL	QUANT	1.00000E+000	Final Fre&q. (Hz)
PTSPERDEC	QUANT	7.00000E+000	Points/&decade
VAC	QUANT	1.00000E+001	AC &Voltage (mV rms)
AREA	QUANT	1.00000E+000	&Area (cm^2)
CONDIT	TWOPARAM	F	1.50000E+001	0.00000E+000	Conditionin&g	Time(s)	E(V)
DELAY	TWOPARAM	F	1.00000E+001	0.00000E+000	Init. De&lay	Time(s)	Stab.(mV/s)
SPEED	SELECTOR	1	&Optimize for:
THD	SELECTOR	0	T&HD
DRIFTCOR	SELECTOR	0	&Drift Correction
ZGUESS	QUANT	1.00000E+002	E&stimated Z (ohms)
OCVCURVE	TABLE	39
	Pt	T	Vf	Vm	Ach	Over	Temp
	#	s	V vs. Ref.	V	V	bits	deg C
	0	0.258333	8.99719E-001	8.99719E-001	0.00000E+000	...........	1367.05
	1	0.516667	8.99724E-001	8.99969E-001	0.00000E+000	...........	1367.05
	2	0.775	8.99751E-001	9.00074E-001	0.00000E+000	...........	1367.05
	3	1.03333	8.99821E-001	9.00350E-001	0.00000E+000	...........	1366.97
	4	1.29167	8.99947E-001	9.00633E-001	0.00000E+000	...........	1366.97
	5	1.55	9.00125E-001	9.00851E-001	0.00000E+000	...........	1366.97
	6	1.80833	9.00345E-001	9.01129E-001	0.00000E+000	...........	1366.97
	7	2.06667	9.00590E-001	9.01382E-001	0.00000E+000	...........	1366.97
	8	2.325	9.00845E-001	9.01656E-001	0.00000E+000	...........	1366.97
	9	2.58333	9.01103E-001	9.01843E-001	0.00000E+000	...........	1366.97
	10	2.84167	9.01360E-001	9.02180E-001	0.00000E+000	...........	1366.97
	11	3.1	9.01613E-001	9.02313E-001	0.00000E+000	...........	1366.97
	12	3.35833	9.01859E-001	9.02544E-001	0.00000E+000	...........	1366.97
	13	3.61667	9.02095E-001	9.02803E-001	0.00000E+000	...........	1366.97
	14	3.875	9.02320E-001	9.02976E-001	0.00000E+000	...........	1366.97
	15	4.13333	9.02542E-001	9.03285E-001	0.00000E+000	...........	1366.79
	16	4.39167	9.02768E-001	9.03516E-001	0.00000E+000	...........	1366.79
	17	4.65	9.03003E-001	9.03744E-001	0.00000E+000	...........	1366.79
	18	4.90833	9.03244E-001	9.03967E-001	0.00000E+000	...........	1366.65
	19	5.16667	9.03486E-001	9.04216E-001	0.00000E+000	...........	1366.54
	20	5.425	9.03723E-001	9.04413E-001	0.00000E+000	...........	1366.54
	21	5.68333	9.03955E-001	9.04661E-001	0.00000E+000	...........	1366.54
	22	5.94167	9.04184E-001	9.04889E-001	0.00000E+000	...........	1366.88
	23	6.2	9.04411E-001	9.05110E-001	0.00000E+000	...........	1366.88
	24	6.45833	9.04638E-001	9.05286E-001	0.00000E+000	...........	1366.88
	25	6.71667	9.04860E-001	9.05461E-001	0.00000E+000	...........	1366.88
	26	6.975	9.05071E-001	9.05718E-001	0.00000E+000	...........	1366.88
	27	7.23333	9.05274E-001	9.05903E-001	0.00000E+000	...........	1366.88
	28	7.49167	9.05477E-001	9.06129E-001	0.00000E+000	...........	1366.88
	29	7.75	9.05685E-001	9.06366E-001	0.00000E+000	...........	1366.88
	30	8.00833	9.05900E-001	9.06631E-001	0.00000E+000	...........	1366.97
	31	8.26667	9.06124E-001	9.06854E-001	0.00000E+000	...........	1366.97
	32	8.525	9.06359E-001	9.07120E-001	0.00000E+000	...........	1366.97
	33	8.78333	9.06601E-001	9.07350E-001	0.00000E+000	...........	1366.97
	34	9.04167	9.06845E-001	9.07598E-001	0.00000E+000	...........	1366.97
	35	9.3	9.07090E-001	9.07831E-001	0.00000E+000	...........	1366.97
	36	9.5583	9.07333E-001	9.08057E-001	0.00000E+000	...........	1366.97
	37	9.8167	9.07573E-001	9.08275E-001	0.00000E+000	...........	1366.97
	38	10.075	9.07807E-001	9.08528E-001	0.00000E+000	...........	1366.97
EOC	QUANT	0.9078073	Open Circuit (V)
PSTATMODEL	IQUANT	64	Pstat Model
PSTATSECTION	LABEL	IFC1010-32247	Pstat Section
PSTATSERIALNO	LABEL	32247	Pstat Serial Number
CTRLMODE	IQUANT	1	Control Mode
ELECTROMETER	IQUANT	0	RE=0 or CS=1
IESTAB	IQUANT	0	I/E Stability
CASPEED	IQUANT	3	Control Amp Speed
CONVENTION	IQUANT	1	Current Convention
ICHRANGE	IQUANT	2	Ich Range
ICHRANGEMODE	TOGGLE	F	Ich Auto Range
ICHOFFSETENABLE	TOGGLE	T	Ich Offset Enable
ICHOFFSET	QUANT	0	Ich Offset (V)
ICHFILTER	IQUANT	4	Ich Filter
VCHRANGE	IQUANT	2	Vch Range
VCHRANGEMODE	TOGGLE	F	Vch Auto Range
VCHOFFSETENABLE	TOGGLE	T	Vch Offset Enable
VCHOFFSET	QUANT	0	Vch Offset (V)
VCHFILTER	IQUANT	4	Vch Filter
IERANGELOWERLIMIT	IQUANT	4	I/E Range Lower Limit
IERANGEMODE	TOGGLE	F	I/E AutoRange
IERANGE	IQUANT	11	I/E Range
ACHSELECT	IQUANT	0	Ach Select
ACHRANGE	IQUANT	2	Ach Range
ACHOFFSETENABLE	TOGGLE	F	Ach Offset Enable
ACHOFFSET	QUANT	0	Ach Offset (V)
ACHFILTER	IQUANT	1	Ach Filter
SENSECABLEID	IQUANT	14	Sense Cable ID
PWRCABLEID	IQUANT	14	Power Cable ID
DCCALDATE	LABEL	11/18/2024	DC Calibration Date
ACCALDATE	LABEL	4/18/2022	AC Calibration Date
FRAMEWORKVERSION	LABEL	7.10.3	Framework Version
INSTRUMENTVERSION	LABEL	4.91	Instrument Version
COMMVERSION	LABEL	3.10	Communications Version
CPUPLDVERSION	LABEL	2.22	CPU PLD Version
CTRLPLDVERSION	LABEL	0.00	CTRL PLD Version
PSTATPLDVERSION	LABEL	0.00	PSTAT PLD Version
ZCURVE	TABLE
	Pt	Time	Freq	Zreal	Zimag	Zsig	Zmod	Zphz	Idc	Vdc	IERange	Imod	Vmod	Temp
	#	s	Hz	ohm	ohm	V	ohm	°	A	V	#	A	V	°C
	0	2	100019.5	23669.96	-50086.14	1	55397.55	-64.70528	-4.030797E-008	0.9079401	8	1.796437E-007	0.0100342	1366.795
	1	4	72011.72	26088.32	-65764.96	1	70750.48	-68.36226	-3.961519E-008	0.9079396	8	1.467056E-007	0.010423	1366.451
	2	6	51855.47	29300.1	-87129.7	1	91924.31	-71.41316	-4.000691E-008	0.9079385	8	1.101755E-007	0.0101503	1367.138
	3	7	37324.22	32358.08	-116025.9	1	120453.6	-74.41692	-5.569436E-008	0.9079527	8	8.337599E-008	0.010055	1367.138
	4	9	26894.53	35977.17	-156638.8	1	160717.4	-77.06452	-4.90582E-009	0.9079533	7	6.050696E-008	0.0100578	1366.366
	5	11	19394.53	40089.96	-211131.9	1	214904.4	-79.2486	-4.245877E-009	0.9079572	7	4.562519E-008	0.0099875	1366.967
	6	12	13831.02	44832.82	-289204	1	292658.4	-81.18806	-3.389177E-009	0.9077683	7	3.387671E-008	0.010014	1366.709
	7	14	10019.53	50577.42	-391495.2	1	394748.7	-82.63871	-4.781112E-009	0.9079522	7	2.513818E-008	0.0099796	1366.623
	8	15	7207.031	56937.66	-536571.5	1	539584	-83.94279	-4.608069E-009	0.9079528	7	1.848774E-008	0.0100075	1367.138
	9	17	5150.463	65249.89	-739090.5	1	741965.2	-84.95478	-3.262587E-009	0.9077694	7	1.346264E-008	0.0100063	1366.537
	10	19	3715.701	76055.98	-1010209	1	1013068	-85.69447	-3.534047E-009	0.9079381	7	9.760643E-009	0.0098844	1366.967
	11	20	2686.738	95180.8	-1383942	1	1387211	-86.06567	-3.765862E-010	0.9079398	6	7.014288E-009	0.0100783	1367.052
	12	22	1933.594	113917.5	-1902362	1	1905769	-86.5731	-3.578513E-010	0.9079376	6	5.161101E-009	0.0100299	1366.28
	13	24	1395.089	139985.6	-2610937	1	2614686	-86.93102	-3.602891E-010	0.9079372	6	3.782123E-009	0.0100011	1366.366
	14	26	1000.702	179606.5	-3603018	1	3607492	-87.14623	-3.912501E-010	0.9078796	6	2.753157E-009	0.01	1367.052
	15	27	716.9117	225367.9	-4981308	1	4986404	-87.40955	-3.69208E-010	0.9078795	6	1.99599E-009	0.0099973	1366.451
	16	29	520.8333	330477.3	-6786727	1	6794768	-87.2122	-3.470797E-010	0.9078798	6	1.466177E-009	0.0099941	1367.052
	17	30	372.8693	451915.5	-9407342	1	9418190	-87.2497	-3.233895E-010	0.9079401	6	1.047311E-009	0.0098412	1367.052
	18	32	269.3965	659822.1	-1.292127E+007	1	1.29381E+007	-87.07674	-3.308333E-011	0.9079433	5	7.451377E-010	0.0100886	1366.945
	19	33	193.6983	989359	-1.775673E+007	1	1.778427E+007	-86.81093	-3.344318E-011	0.9079425	5	5.461603E-010	0.0099958	1366.881
	20	35	139.2327	1445536	-2.442557E+007	1	2.446831E+007	-86.61311	-3.369736E-011	0.907943	5	3.979309E-010	0.0099108	1367.052
	21	37	99.734	2224954	-3.356691E+007	1	3.364057E+007	-86.20775	-3.28265E-011	0.9079461	5	2.947418E-010	0.0100192	1366.623
	22	38	72.11539	3381251	-4.572598E+007	1	4.585083E+007	-85.7709	-3.457384E-011	0.9079483	5	2.167888E-010	0.0099993	1367.138
	23	40	49.86702	5163643	-6.512844E+007	1	6.533281E+007	-85.46684	-3.411151E-011	0.9079468	5	1.526723E-010	0.0100046	1366.709
	24	41	37.5	7668505	-8.488318E+007	1	8.522886E+007	-84.83781	-3.371267E-011	0.9079503	5	1.171449E-010	0.0100016	1366.709
	25	43	27.25291	1.192556E+007	-1.151166E+008	1	1.157326E+008	-84.08551	-8.870035E-012	0.9079465	4	8.25603E-011	0.0099989	1366.366
	26	45	19.29012	1.775655E+007	-1.599913E+008	1	1.609736E+008	-83.66698	-9.072273E-012	0.907951	4	6.067968E-011	0.0100003	1366.709
	27	46	13.95089	2.811844E+007	-2.141937E+008	1	2.160315E+008	-82.52122	-8.958545E-012	0.9079483	4	4.57109E-011	0.0099994	1366.537
	28	48	9.9734	4.40514E+007	-2.928204E+008	1	2.961154E+008	-81.44468	-9.162756E-012	0.9079481	4	3.355416E-011	0.0100003	1366.709
	29	50	7.233796	6.623956E+007	-3.937588E+008	1	3.992914E+008	-80.4509	-9.223382E-012	0.9079515	4	2.495962E-011	0.0100003	1366.537
	30	53	5.196785	1.06025E+008	-5.271705E+008	1	5.377267E+008	-78.62833	-9.505963E-012	0.9079476	4	1.856242E-011	0.0099992	1366.623
	31	56	3.720238	1.651511E+008	-7.099684E+008	1	7.289239E+008	-76.90488	-9.662029E-012	0.9079486	4	1.3707E-011	0.0100004	1366.537
	32	59	2.689329	2.532826E+008	-9.388646E+008	1	9.724293E+008	-74.90242	-9.888299E-012	0.907951	4	1.027877E-011	0.0100001	1366.537
	33	64	1.929012	3.94804E+008	-1.243499E+009	1	1.304668E+009	-72.38564	-1.001782E-011	0.9079435	4	7.582205E-012	0.0098887	1366.795
	34	68	1.395089	6.036936E+008	-1.60899E+009	1	1.718515E+009	-69.43389	-1.035031E-011	0.9079463	4	5.868039E-012	0.0100828	1366.709
	35	74	0.997765	9.278369E+008	-2.088178E+009	1	2.285031E+009	-66.04305	-1.06626E-011	0.9079435	4	4.387234E-012	0.0100243	1367.138
