EXPLAIN
TAG	EISPOT
TITLE	LABEL	Potentiostatic EIS	Test Identifier
DATE	LABEL	5/9/2025	Date
TIME	LABEL	15:02:24	Time
NOTES	NOTES	1	Notes...
	
PSTAT	PSTAT	REF600P-43058	Potentiostat
VDC	POTEN	0.00000E+000	T	DC Voltage (V)
FREQINIT	QUANT	1.00000E+005	Initial Freq. (Hz)
FREQFINAL	QUANT	1.00000E-001	Final Freq. (Hz)
PTSPERDEC	QUANT	7.00000E+000	Points/decade
VAC	QUANT	1.00000E+001	AC Voltage (mV rms)
AREA	QUANT	1.00000E+000	Sample Area (cm^2)
SPEED	SELECTOR	1	Optimize for:
DRIFTCOR	SELECTOR	0	Drift Correction
THD	SELECTOR	0	THD
ZGUESS	QUANT	1.00000E+002	Estimated Z (ohms)
EOC	QUANT	0.1578694	Open Circuit (V)
SEQUENCER	TOGGLE	TRUE	Run as Sequence
PSTATMODEL	IQUANT	7	Pstat Model
PSTATSECTION	LABEL	REF600P-43058	Pstat Section
PSTATSERIALNO	LABEL	43058	Pstat Serial Number
CTRLMODE	IQUANT	1	Control Mode
ELECTROMETER	IQUANT	0	RE=0 or CS=1
IESTAB	IQUANT	0	I/E Stability
CASPEED	IQUANT	3	Control Amp Speed
CONVENTION	IQUANT	1	Current Convention
ICHRANGE	IQUANT	2	Ich Range
ICHRANGEMODE	TOGGLE	F	Ich Auto Range
ICHOFFSETENABLE	TOGGLE	T	Ich Offset Enable
ICHOFFSET	QUANT	0	Ich Offset (V)
ICHFILTER	IQUANT	3	Ich Filter
VCHRANGE	IQUANT	2	Vch Range
VCHRANGEMODE	TOGGLE	F	Vch Auto Range
VCHOFFSETENABLE	TOGGLE	T	Vch Offset Enable
VCHOFFSET	QUANT	0	Vch Offset (V)
VCHFILTER	IQUANT	3	Vch Filter
ACHRANGE	IQUANT	2	Ach Range
ACHOFFSETENABLE	TOGGLE	F	Ach Offset Enable
ACHOFFSET	QUANT	0	Ach Offset (V)
ACHFILTER	IQUANT	1	Ach Filter
IERANGELOWERLIMIT	IQUANT	1	I/E Range Lower Limit
IERANGEMODE	TOGGLE	F	I/E AutoRange
IERANGE	IQUANT	10	I/E Range
POSFEEDENABLE	TOGGLE	F	Positive Feedback IR Comp
POSFEEDRESISTANCE	QUANT	0	Positive Feedback Resistance (ohm)
ACHSELECT	IQUANT	4	Ach Select
SENSECABLEID	IQUANT	7	Sense Cable ID
PWRCABLEID	IQUANT	7	Power Cable ID
DCCALDATE	LABEL	5/8/2025	DC Calibration Date
ACCALDATE	LABEL	5/8/2025	AC Calibration Date
THERMOSELECT	IQUANT	1	Thermo Select
FRAMEWORKVERSION	LABEL	7.10.4	Framework Version
INSTRUMENTVERSION	LABEL	5.01	Instrument Version
COMMVERSION	LABEL	5.10	Communications Version
CPUPLDVERSION	LABEL	6.00	CPU PLD Version
CTRLPLDVERSION	LABEL	3.21	CTRL PLD Version
PSTATPLDVERSION	LABEL	0.00	PSTAT PLD Version
ZCURVE	TABLE
	Pt	Time	Freq	Zreal	Zimag	Zsig	Zmod	Zphz	Idc	Vdc	IERange	Imod	Vmod	Temp
	#	s	Hz	ohm	ohm	V	ohm	deg	A	V	#	A	V	degC
	0	5	100078.1	4645.503	-298.3078	1	4655.071	-3.674165	2.417226E-008	0.1577648	7	2.050266E-006	0.0095678	-327.6624
	1	6	72046.88	4897.931	194.0257	1	4901.772	2.268518	1.244102E-008	0.1576885	6	1.282753E-006	0.0064794	-327.6624
	2	8	51796.87	4872.164	34.32289	1	4872.285	0.4036244	1.243659E-008	0.1576807	6	2.48989E-006	0.012323	-327.6624
	3	10	37359.37	4887.304	-116.4723	1	4888.692	-1.365192	1.218469E-008	0.1576837	6	2.368974E-006	0.0116764	-327.6624
	4	11	26859.38	4930.762	-255.3965	1	4937.372	-2.965075	1.194215E-008	0.1576804	6	2.235952E-006	0.0110866	-327.6624
	5	13	19359.38	4995.608	-389.2431	1	5010.75	-4.455317	1.193559E-008	0.1576822	6	2.113299E-006	0.0106126	-327.6624
	6	14	13921.87	5077.194	-524.7298	1	5104.237	-5.90059	1.237907E-008	0.1576869	6	2.018922E-006	0.0103168	-327.6624
	7	16	10078.13	5173.905	-668.8465	1	5216.958	-7.36595	1.234235E-008	0.1576854	6	1.943777E-006	0.0101467	-327.6624
	8	18	7265.625	5292.288	-833.904	1	5357.584	-8.954453	1.172975E-008	0.157686	6	1.878906E-006	0.0100695	-327.6624
	9	19	5203.125	5436.394	-1026.457	1	5532.449	-10.69227	1.173898E-008	0.1576854	6	1.811308E-006	0.0100226	-327.6624
	10	21	3722.427	5609.671	-1258.309	1	5749.065	-12.64279	1.194729E-008	0.1576832	6	1.740158E-006	0.0100051	-327.6624
	11	22	2659.255	5816.001	-1539.208	1	6016.23	-14.82352	1.207372E-008	0.1576849	6	1.661312E-006	0.0099953	-327.6624
	12	24	1938.101	6048.827	-1859.066	1	6328.067	-17.08446	1.229593E-008	0.1576819	6	1.579629E-006	0.0099962	-327.6624
	13	26	1397.236	6337.146	-2261.925	1	6728.725	-19.64307	1.212326E-008	0.1576856	6	1.485442E-006	0.0099952	-327.6624
	14	27	998.264	6694.587	-2770.644	1	7245.271	-22.48287	1.157321E-008	0.1576845	6	1.379179E-006	0.0099926	-327.6624
	15	29	724.4318	7106.074	-3365.918	1	7862.932	-25.3454	1.214518E-008	0.1576885	6	1.271784E-006	0.01	-327.6624
	16	30	516.4195	7638.192	-4145.189	1	8690.488	-28.48835	1.23763E-008	0.1576912	6	1.150182E-006	0.0099957	-327.6624
	17	32	370.0658	8281.366	-5090.997	1	9721.07	-31.58126	1.432827E-010	0.1577262	6	1.031359E-006	0.0100163	-327.6624
	18	34	268.9549	9032.687	-6204.136	1	10958.14	-34.48338	1.025934E-010	0.1577274	6	9.143055E-007	0.0100131	-327.6624
	19	35	192.1107	10004.77	-7645.829	1	12591.83	-37.38773	1.112892E-010	0.1577276	6	7.938793E-007	0.0099931	-327.6624
	20	37	137.8676	11184.1	-9396.698	1	14607.6	-40.03643	7.889212E-011	0.1577318	6	6.841292E-007	0.0099917	-327.6624
	21	38	100.4464	12562.51	-11444.36	1	16993.82	-42.33331	3.534582E-010	0.1577315	6	5.879998E-007	0.0099914	-327.6624
	22	40	71.74745	14358.51	-14110.08	1	20131.1	-44.50002	2.249512E-010	0.1577334	6	4.959819E-007	0.0099842	-327.6624
	23	41	49.86702	16768.03	-17692.47	1	24376.02	-46.53665	2.787762E-010	0.1577349	6	4.084273E-007	0.0099556	-327.6624
	24	43	37.20238	19155	-21245.75	1	28605.87	-47.96243	2.209732E-010	0.1577285	6	3.456749E-007	0.0098882	-327.6624
	25	45	27.25291	22222.62	-25790.66	1	34044.13	-49.25005	1.080598E-011	0.1577284	5	2.81011E-007	0.0095667	-327.6624
	26	46	19.21107	26492.05	-32217.63	1	41710.96	-50.57007	-4.515298E-009	0.157782	5	2.558271E-007	0.0106708	-327.6624
	27	48	13.95089	31437.14	-39132.02	1	50195.71	-51.22297	-3.333274E-009	0.1577819	5	1.99494E-007	0.0100137	-327.6624
	28	49	9.93114	37573.8	-47429.33	1	60508.95	-51.61352	-1.216951E-009	0.15778	5	1.654411E-007	0.0100107	-327.6624
	29	51	7.233796	43590.62	-56572.99	1	71418.8	-52.38503	-6.167009E-010	0.1577805	5	1.401248E-007	0.0100075	-327.6624
	30	53	5.208333	49321.03	-68462.2	1	84377.94	-54.23055	-1.421849E-010	0.1577834	5	1.186242E-007	0.0100093	-327.6624
	31	55	3.75601	54001.39	-84781.94	1	100519.3	-57.50512	-5.364936E-011	0.1577807	5	9.954943E-008	0.0100066	-327.6624
	32	57	2.703287	57660.85	-108361.8	1	122747.9	-61.98192	-2.967571E-012	0.1577841	5	8.153823E-008	0.0100086	-327.6624
	33	61	1.914829	60720.79	-144328.6	1	156581.5	-67.18292	-3.131523E-012	0.1577743	5	6.307836E-008	0.0099239	-327.6624
	34	65	1.392603	63095.97	-191717	1	201832.9	-71.78311	8.199247E-012	0.1577785	5	4.973592E-008	0.0100631	-327.6624
	35	70	0.999041	65514.41	-261122.6	1	269215.8	-75.9155	2.560524E-011	0.1577793	5	3.716815E-008	0.0100187	-327.6624
	36	76	0.7211539	68160.67	-356317.3	1	362778	-79.1706	3.225809E-012	0.1577735	4	2.749388E-008	0.0099806	-327.6624
	37	83	0.5208334	71165.27	-488237.1	1	493396.3	-81.70699	4.552594E-012	0.1577775	4	2.028675E-008	0.0100128	-327.6624
	38	92	0.375	74840.41	-672888.7	1	677037.9	-83.6535	7.218948E-012	0.1577701	4	1.477861E-008	0.0100074	-327.6624
	39	104	0.2693966	79458.87	-930834.3	1	934219.6	-85.12089	7.193329E-012	0.1577753	4	1.070846E-008	0.0100049	-327.6624
	40	121	0.1936983	85180.71	-1288358	1	1291171	-86.21735	8.07291E-012	0.1577798	4	7.747031E-009	0.0100032	-327.6624
	41	142	0.1390949	92767.62	-1786783	1	1789189	-87.02794	9.822018E-012	0.1577817	4	5.590231E-009	0.0100022	-327.6624
	42	170	0.1001603	102938.3	-2472475	1	2474617	-87.61594	1.041271E-011	0.1577793	4	4.041237E-009	0.0100006	-327.6624
